irun(64): 15.20-s051: (c) Copyright 1995-2018 Cadence Design Systems, Inc.
TOOL:	irun(64)	15.20-s051: Started on Mar 01, 2019 at 19:56:30 IST
irun
	-access +rwc
	-f compile_list.f
		./../../axi_top_rtl/AXI4_SLAVE_WITH_TOP/1.AXI4_Slave_Write_Address.sv
		./../../axi_top_rtl/AXI4_SLAVE_WITH_TOP/2.AXI4_Slave_Write_Data.sv
		./../../axi_top_rtl/AXI4_SLAVE_WITH_TOP/3.AXI4_Slave_Write_Response.sv
		./../../axi_top_rtl/AXI4_SLAVE_WITH_TOP/4.AXI4_Slave_Read_Address.sv
		./../../axi_top_rtl/AXI4_SLAVE_WITH_TOP/5.AXI4_Slave_Read_Data.sv
		./../../axi_top_rtl/AXI4_SLAVE_WITH_TOP/axi4_Slave_top.sv
		./../UVME/uvm_pkg/test_pkg.sv
		./../UVME/top/axi_top.sv
		./../UVME/top/axi_interface.sv
	-svseed 36683
	+UVM_TESTNAME=axi_reset_test
	+define+UVM_REPORT_DISABLE_FILE_LINE
	-coverage all
	-covdut axi4_slave_top
	-covworkdir /cov_work
	-covoverwrite
	-covfile ./cov_files/cov_cmd.cf
	-uvmhome CDNS-1.1d
ncsim: *E,CNDIR: Could not create/open directory /cov_work.
Loading snapshot worklib.axi_top:sv .................... Done
SVSEED set from command line: 36683
ncsim: *W,DSEM2009: This SystemVerilog design is simulated as per IEEE 1800-2009 SystemVerilog simulation semantics. Use -disable_sem2009 option for turning off SV 2009 simulation semantics.
ncsim> source /tools/cadence/INCISIVE152/tools/inca/files/ncsimrc
ncsim> source /tools/cadence/INCISIVE152/tools/methodology/UVM/CDNS-1.1d/additions/sv/files/tcl/uvm_sim.tcl
ncsim> run
----------------------------------------------------------------
CDNS-UVM-1.1d (15.20-s051)
(C) 2007-2013 Mentor Graphics Corporation
(C) 2007-2013 Cadence Design Systems, Inc.
(C) 2006-2013 Synopsys, Inc.
(C) 2011-2013 Cypress Semiconductor Corp.
----------------------------------------------------------------

  ***********       IMPORTANT RELEASE NOTES         ************

  You are using a version of the UVM library that has been compiled
  with `UVM_NO_DEPRECATED undefined.
  See http://www.eda.org/svdb/view.php?id=3313 for more details.

  You are using a version of the UVM library that has been compiled
  with `UVM_OBJECT_MUST_HAVE_CONSTRUCTOR undefined.
  See http://www.eda.org/svdb/view.php?id=3770 for more details.

      (Specify +UVM_NO_RELNOTES to turn off this notice)

UVM_INFO @ 0: uvm_test_top [axi_reset_test] Inside Constuctor!
UVM_INFO @ 0: reporter [RNTST] Running test axi_reset_test...
UVM_INFO @ 0: uvm_test_top.env_inst [ENV_CLASS] Inside constructor!
UVM_INFO @ 0: uvm_test_top [axi_reset_test] Inside Build Phase!
UVM_INFO @ 0: uvm_test_top.env_inst.agent_inst [agent_class] Inside constructor!
ncsim: *W,OBINRGT: (File: ../UVME/env/axi_cov_model.sv, Line : 54): Some of the values in bin range '[8 : $]' of bin 'worklib.test_pkg::axi_cov_model::axi_write_cg.AWSIZE.invalid' are not within the possible values that coverpoint can store. Range will be modified to '[7 : $]'.
ncsim: *W,OBINRGT: (File: ../UVME/env/axi_cov_model.sv, Line : 156): Some of the values in bin range '[8 : $]' of bin 'worklib.test_pkg::axi_cov_model::axi_read_cg.ARSIZE.invalid' are not within the possible values that coverpoint can store. Range will be modified to '[7 : $]'.
UVM_INFO @ 0: uvm_test_top.env_inst [ENV_CLASS] Inside Build Phase!
UVM_INFO @ 0: uvm_test_top.env_inst.agent_inst.driver_inst [Driver_class] Inside Constructor!
UVM_INFO @ 0: uvm_test_top.env_inst.agent_inst.seqr_inst [Sequencer_class] Inside Constructor!
UVM_INFO @ 0: uvm_test_top.env_inst.agent_inst [agent_class] Inside Build Phase!
UVM_INFO @ 0: uvm_test_top.env_inst.agent_inst.driver_inst [Driver_class] Inside Build Phase!
UVM_INFO @ 0: uvm_test_top.env_inst.cov_model [COV_MODEL] Build phase executed
UVM_INFO @ 0: uvm_test_top.env_inst.agent_inst [agent_class] Inside Connect Phase!
UVM_INFO @ 0: uvm_test_top.env_inst [ENV_CLASS] Inside connect Phase! All connections established
UVM_INFO @ 0: reporter [UVMTOP] UVM testbench topology:
--------------------------------------------------------------
Name                       Type                    Size  Value
--------------------------------------------------------------
uvm_test_top               axi_reset_test          -     @2784
  env_inst                 axi_env                 -     @2866
    agent_inst             axi_agent               -     @2948
      driver_inst          axi_driver              -     @3070
        rsp_port           uvm_analysis_port       -     @3170
        seq_item_port      uvm_seq_item_pull_port  -     @3119
      mon_inst             axi_monitor             -     @3202
        handshake_port     uvm_analysis_port       -     @3350
        rd_analysis_port   uvm_analysis_port       -     @3301
        wr_analysis_port   uvm_analysis_port       -     @3252
      seqr_inst            axi_seqr                -     @3330
        rsp_export         uvm_analysis_export     -     @3438
        seq_item_export    uvm_seq_item_pull_imp   -     @3986
        arbitration_queue  array                   0     -    
        lock_queue         array                   0     -    
        num_last_reqs      integral                32    'd1  
        num_last_rsps      integral                32    'd1  
    cov_model              axi_cov_model           -     @2980
      analysis_imp         uvm_analysis_imp        -     @3031
    sb                     axi_scoreboard          -     @2914
      rd_analysis_port     uvm_analysis_port       -     @4238
      rd_export            uvm_analysis_imp_rd     -     @4140
      wr_analysis_port     uvm_analysis_port       -     @4189
      wr_export            uvm_analysis_imp_wr     -     @4091
--------------------------------------------------------------

UVM_INFO @ 0: uvm_test_top [uvm_test_top] it test reset first line
UVM_INFO @ 0: uvm_test_top [axi_reset_test] inside the reset test
UVM_INFO @ 0: uvm_test_top.env_inst.agent_inst.seqr_inst@@reset_seq_inst [axi_reset_seq] Reset seq: inside body
UVM_INFO @ 5: uvm_test_top.env_inst.agent_inst.seqr_inst@@reset_seq_inst [env_class] Inside connect Phase!
UVM_INFO @ 5: uvm_test_top [axi_reset_test] reset scenario 1 is competed
UVM_INFO @ 5: uvm_test_top.env_inst.agent_inst.seqr_inst@@reset_seq_inst [axi_reset_seq] Reset seq: inside body
UVM_INFO @ 15: uvm_test_top.env_inst.cov_model [COV_MODEL] Sampling write coverage for transaction: WSTRB=0xx, AWSIZE=0xx
UVM_INFO @ 15: uvm_test_top.env_inst.sb [SCOREBOARD] 
WRITE Address: AWADDR=0xx	 AWID=0xx	 AWLEN=x	 AWSIZE=x	 AWBURST=x

UVM_INFO @ 15: uvm_test_top.env_inst.sb [SCOREBOARD] 
WRITE Data:	 WDATA=0x'{}	 WSTRB=0xx	 WLAST=x

UVM_INFO @ 15: uvm_test_top.env_inst.sb [SCOREBOARD] 
WRITE Response:	 BID=0x0	 BRESP=0x0

UVM_INFO @ 65: uvm_test_top [axi_reset_test] reset scenario 2 is competed
UVM_INFO @ 65: uvm_test_top.env_inst.agent_inst.seqr_inst@@reset_seq_inst [axi_reset_seq] Reset seq: inside body
UVM_INFO @ 85: uvm_test_top.env_inst.cov_model [COV_MODEL] Sampling read coverage for transaction: ARSIZE=0x0
UVM_INFO @ 85: uvm_test_top.env_inst.sb [SCOREBOARD] 
READ Address: ARADDR=0x0	 ARID=0x0	 ARLEN=0	 ARSIZE=0	 ARBURST=0

UVM_INFO @ 85: uvm_test_top.env_inst.sb [SCOREBOARD] 
READ Data: RDATA=0x0	 RRESP=0x0	 RLAST=0x0

UVM_INFO @ 105: uvm_test_top [axi_reset_test] reset scenario 3 is competed
UVM_INFO @ 115: uvm_test_top.env_inst.cov_model [COV_MODEL] Sampling write coverage for transaction: WSTRB=0xd, AWSIZE=0x3
UVM_INFO @ 115: uvm_test_top.env_inst.sb [SCOREBOARD] 
WRITE Address: AWADDR=0x0	 AWID=0x0	 AWLEN=b8	 AWSIZE=3	 AWBURST=3

UVM_INFO @ 115: uvm_test_top.env_inst.sb [SCOREBOARD] 
WRITE Data:	 WDATA=0x'{'h8ccd35fb}	 WSTRB=0xd	 WLAST=1

UVM_INFO @ 115: uvm_test_top.env_inst.sb [SCOREBOARD] 
WRITE Response:	 BID=0x0	 BRESP=0x0

UVM_INFO @ 125: uvm_test_top.env_inst.cov_model [COV_MODEL] Sampling read coverage for transaction: ARSIZE=0x0
UVM_INFO @ 125: uvm_test_top.env_inst.sb [SCOREBOARD] 
READ Address: ARADDR=0x0	 ARID=0x0	 ARLEN=0	 ARSIZE=0	 ARBURST=0

UVM_INFO @ 125: uvm_test_top.env_inst.sb [SCOREBOARD] 
READ Data: RDATA=0x0	 RRESP=0x0	 RLAST=0x0

UVM_INFO @ 155: uvm_test_top.env_inst.cov_model [COV_MODEL] Sampling write coverage for transaction: WSTRB=0xd, AWSIZE=0x3
UVM_INFO @ 155: uvm_test_top.env_inst.sb [SCOREBOARD] 
WRITE Address: AWADDR=0x0	 AWID=0x0	 AWLEN=b8	 AWSIZE=3	 AWBURST=3

UVM_INFO @ 155: uvm_test_top.env_inst.sb [SCOREBOARD] 
WRITE Data:	 WDATA=0x'{'h8ccd35fb}	 WSTRB=0xd	 WLAST=1

UVM_INFO @ 155: uvm_test_top.env_inst.sb [SCOREBOARD] 
WRITE Response:	 BID=0x0	 BRESP=0x0

UVM_INFO @ 165: uvm_test_top.env_inst.cov_model [COV_MODEL] Sampling read coverage for transaction: ARSIZE=0x0
UVM_INFO @ 165: uvm_test_top.env_inst.sb [SCOREBOARD] 
READ Address: ARADDR=0x0	 ARID=0x0	 ARLEN=0	 ARSIZE=0	 ARBURST=0

UVM_INFO @ 165: uvm_test_top.env_inst.sb [SCOREBOARD] 
READ Data: RDATA=0x0	 RRESP=0x0	 RLAST=0x0

UVM_INFO @ 195: uvm_test_top.env_inst.cov_model [COV_MODEL] Sampling write coverage for transaction: WSTRB=0xd, AWSIZE=0x3
UVM_INFO @ 195: uvm_test_top.env_inst.sb [SCOREBOARD] 
WRITE Address: AWADDR=0x0	 AWID=0x0	 AWLEN=b8	 AWSIZE=3	 AWBURST=3

UVM_INFO @ 195: uvm_test_top.env_inst.sb [SCOREBOARD] 
WRITE Data:	 WDATA=0x'{'h8ccd35fb}	 WSTRB=0xd	 WLAST=1

UVM_INFO @ 195: uvm_test_top.env_inst.sb [SCOREBOARD] 
WRITE Response:	 BID=0x0	 BRESP=0x0

UVM_INFO @ 205: uvm_test_top.env_inst.cov_model [COV_MODEL] Sampling read coverage for transaction: ARSIZE=0x0
UVM_INFO @ 205: uvm_test_top.env_inst.sb [SCOREBOARD] 
READ Address: ARADDR=0x0	 ARID=0x0	 ARLEN=0	 ARSIZE=0	 ARBURST=0

UVM_INFO @ 205: uvm_test_top.env_inst.sb [SCOREBOARD] 
READ Data: RDATA=0x0	 RRESP=0x0	 RLAST=0x0

UVM_INFO @ 235: uvm_test_top.env_inst.cov_model [COV_MODEL] Sampling write coverage for transaction: WSTRB=0xd, AWSIZE=0x3
UVM_INFO @ 235: uvm_test_top.env_inst.sb [SCOREBOARD] 
WRITE Address: AWADDR=0x0	 AWID=0x0	 AWLEN=b8	 AWSIZE=3	 AWBURST=3

UVM_INFO @ 235: uvm_test_top.env_inst.sb [SCOREBOARD] 
WRITE Data:	 WDATA=0x'{'h8ccd35fb}	 WSTRB=0xd	 WLAST=1

UVM_INFO @ 235: uvm_test_top.env_inst.sb [SCOREBOARD] 
WRITE Response:	 BID=0x0	 BRESP=0x0

UVM_INFO @ 245: uvm_test_top.env_inst.cov_model [COV_MODEL] Sampling read coverage for transaction: ARSIZE=0x0
UVM_INFO @ 245: uvm_test_top.env_inst.sb [SCOREBOARD] 
READ Address: ARADDR=0x0	 ARID=0x0	 ARLEN=0	 ARSIZE=0	 ARBURST=0

UVM_INFO @ 245: uvm_test_top.env_inst.sb [SCOREBOARD] 
READ Data: RDATA=0x0	 RRESP=0x0	 RLAST=0x0

UVM_INFO @ 275: uvm_test_top.env_inst.cov_model [COV_MODEL] Sampling write coverage for transaction: WSTRB=0xd, AWSIZE=0x3
UVM_INFO @ 275: uvm_test_top.env_inst.sb [SCOREBOARD] 
WRITE Address: AWADDR=0x0	 AWID=0x0	 AWLEN=b8	 AWSIZE=3	 AWBURST=3

UVM_INFO @ 275: uvm_test_top.env_inst.sb [SCOREBOARD] 
WRITE Data:	 WDATA=0x'{'h8ccd35fb}	 WSTRB=0xd	 WLAST=1

UVM_INFO @ 275: uvm_test_top.env_inst.sb [SCOREBOARD] 
WRITE Response:	 BID=0x0	 BRESP=0x0

UVM_INFO @ 285: uvm_test_top.env_inst.cov_model [COV_MODEL] Sampling read coverage for transaction: ARSIZE=0x0
UVM_INFO @ 285: uvm_test_top.env_inst.sb [SCOREBOARD] 
READ Address: ARADDR=0x0	 ARID=0x0	 ARLEN=0	 ARSIZE=0	 ARBURST=0

UVM_INFO @ 285: uvm_test_top.env_inst.sb [SCOREBOARD] 
READ Data: RDATA=0x0	 RRESP=0x0	 RLAST=0x0

UVM_INFO @ 315: uvm_test_top.env_inst.cov_model [COV_MODEL] Sampling write coverage for transaction: WSTRB=0xd, AWSIZE=0x3
UVM_INFO @ 315: uvm_test_top.env_inst.sb [SCOREBOARD] 
WRITE Address: AWADDR=0x0	 AWID=0x0	 AWLEN=b8	 AWSIZE=3	 AWBURST=3

UVM_INFO @ 315: uvm_test_top.env_inst.sb [SCOREBOARD] 
WRITE Data:	 WDATA=0x'{'h8ccd35fb}	 WSTRB=0xd	 WLAST=1

UVM_INFO @ 315: uvm_test_top.env_inst.sb [SCOREBOARD] 
WRITE Response:	 BID=0x0	 BRESP=0x0

UVM_INFO @ 325: uvm_test_top.env_inst.cov_model [COV_MODEL] Sampling read coverage for transaction: ARSIZE=0x0
UVM_INFO @ 325: uvm_test_top.env_inst.sb [SCOREBOARD] 
READ Address: ARADDR=0x0	 ARID=0x0	 ARLEN=0	 ARSIZE=0	 ARBURST=0

UVM_INFO @ 325: uvm_test_top.env_inst.sb [SCOREBOARD] 
READ Data: RDATA=0x0	 RRESP=0x0	 RLAST=0x0

UVM_INFO @ 355: uvm_test_top.env_inst.cov_model [COV_MODEL] Sampling write coverage for transaction: WSTRB=0xd, AWSIZE=0x3
UVM_INFO @ 355: uvm_test_top.env_inst.sb [SCOREBOARD] 
WRITE Address: AWADDR=0x0	 AWID=0x0	 AWLEN=b8	 AWSIZE=3	 AWBURST=3

UVM_INFO @ 355: uvm_test_top.env_inst.sb [SCOREBOARD] 
WRITE Data:	 WDATA=0x'{'h8ccd35fb}	 WSTRB=0xd	 WLAST=1

UVM_INFO @ 355: uvm_test_top.env_inst.sb [SCOREBOARD] 
WRITE Response:	 BID=0x0	 BRESP=0x0

UVM_INFO @ 365: uvm_test_top.env_inst.cov_model [COV_MODEL] Sampling read coverage for transaction: ARSIZE=0x0
UVM_INFO @ 365: uvm_test_top.env_inst.sb [SCOREBOARD] 
READ Address: ARADDR=0x0	 ARID=0x0	 ARLEN=0	 ARSIZE=0	 ARBURST=0

UVM_INFO @ 365: uvm_test_top.env_inst.sb [SCOREBOARD] 
READ Data: RDATA=0x0	 RRESP=0x0	 RLAST=0x0

UVM_INFO @ 395: uvm_test_top.env_inst.cov_model [COV_MODEL] Sampling write coverage for transaction: WSTRB=0xd, AWSIZE=0x3
UVM_INFO @ 395: uvm_test_top.env_inst.sb [SCOREBOARD] 
WRITE Address: AWADDR=0x0	 AWID=0x0	 AWLEN=b8	 AWSIZE=3	 AWBURST=3

UVM_INFO @ 395: uvm_test_top.env_inst.sb [SCOREBOARD] 
WRITE Data:	 WDATA=0x'{'h8ccd35fb}	 WSTRB=0xd	 WLAST=1

UVM_INFO @ 395: uvm_test_top.env_inst.sb [SCOREBOARD] 
WRITE Response:	 BID=0x0	 BRESP=0x0

UVM_INFO @ 405: uvm_test_top.env_inst.cov_model [COV_MODEL] Sampling read coverage for transaction: ARSIZE=0x0
UVM_INFO @ 405: uvm_test_top.env_inst.sb [SCOREBOARD] 
READ Address: ARADDR=0x0	 ARID=0x0	 ARLEN=0	 ARSIZE=0	 ARBURST=0

UVM_INFO @ 405: uvm_test_top.env_inst.sb [SCOREBOARD] 
READ Data: RDATA=0x0	 RRESP=0x0	 RLAST=0x0

UVM_INFO @ 435: uvm_test_top.env_inst.cov_model [COV_MODEL] Sampling write coverage for transaction: WSTRB=0xd, AWSIZE=0x3
UVM_INFO @ 435: uvm_test_top.env_inst.sb [SCOREBOARD] 
WRITE Address: AWADDR=0x0	 AWID=0x0	 AWLEN=b8	 AWSIZE=3	 AWBURST=3

UVM_INFO @ 435: uvm_test_top.env_inst.sb [SCOREBOARD] 
WRITE Data:	 WDATA=0x'{'h8ccd35fb}	 WSTRB=0xd	 WLAST=1

UVM_INFO @ 435: uvm_test_top.env_inst.sb [SCOREBOARD] 
WRITE Response:	 BID=0x0	 BRESP=0x0

UVM_INFO @ 445: uvm_test_top.env_inst.cov_model [COV_MODEL] Sampling read coverage for transaction: ARSIZE=0x0
UVM_INFO @ 445: uvm_test_top.env_inst.sb [SCOREBOARD] 
READ Address: ARADDR=0x0	 ARID=0x0	 ARLEN=0	 ARSIZE=0	 ARBURST=0

UVM_INFO @ 445: uvm_test_top.env_inst.sb [SCOREBOARD] 
READ Data: RDATA=0x0	 RRESP=0x0	 RLAST=0x0

UVM_INFO @ 475: uvm_test_top.env_inst.cov_model [COV_MODEL] Sampling write coverage for transaction: WSTRB=0xd, AWSIZE=0x3
UVM_INFO @ 475: uvm_test_top.env_inst.sb [SCOREBOARD] 
WRITE Address: AWADDR=0x0	 AWID=0x0	 AWLEN=b8	 AWSIZE=3	 AWBURST=3

UVM_INFO @ 475: uvm_test_top.env_inst.sb [SCOREBOARD] 
WRITE Data:	 WDATA=0x'{'h8ccd35fb}	 WSTRB=0xd	 WLAST=1

UVM_INFO @ 475: uvm_test_top.env_inst.sb [SCOREBOARD] 
WRITE Response:	 BID=0x0	 BRESP=0x0

UVM_INFO @ 485: uvm_test_top.env_inst.cov_model [COV_MODEL] Sampling read coverage for transaction: ARSIZE=0x0
UVM_INFO @ 485: uvm_test_top.env_inst.sb [SCOREBOARD] 
READ Address: ARADDR=0x0	 ARID=0x0	 ARLEN=0	 ARSIZE=0	 ARBURST=0

UVM_INFO @ 485: uvm_test_top.env_inst.sb [SCOREBOARD] 
READ Data: RDATA=0x0	 RRESP=0x0	 RLAST=0x0

UVM_INFO @ 515: uvm_test_top.env_inst.cov_model [COV_MODEL] Sampling write coverage for transaction: WSTRB=0xd, AWSIZE=0x3
UVM_INFO @ 515: uvm_test_top.env_inst.sb [SCOREBOARD] 
WRITE Address: AWADDR=0x0	 AWID=0x0	 AWLEN=b8	 AWSIZE=3	 AWBURST=3

UVM_INFO @ 515: uvm_test_top.env_inst.sb [SCOREBOARD] 
WRITE Data:	 WDATA=0x'{'h8ccd35fb}	 WSTRB=0xd	 WLAST=1

UVM_INFO @ 515: uvm_test_top.env_inst.sb [SCOREBOARD] 
WRITE Response:	 BID=0x0	 BRESP=0x0

UVM_INFO @ 525: uvm_test_top.env_inst.cov_model [COV_MODEL] Sampling read coverage for transaction: ARSIZE=0x0
UVM_INFO @ 525: uvm_test_top.env_inst.sb [SCOREBOARD] 
READ Address: ARADDR=0x0	 ARID=0x0	 ARLEN=0	 ARSIZE=0	 ARBURST=0

UVM_INFO @ 525: uvm_test_top.env_inst.sb [SCOREBOARD] 
READ Data: RDATA=0x0	 RRESP=0x0	 RLAST=0x0

UVM_INFO @ 555: uvm_test_top.env_inst.cov_model [COV_MODEL] Sampling write coverage for transaction: WSTRB=0xd, AWSIZE=0x3
UVM_INFO @ 555: uvm_test_top.env_inst.sb [SCOREBOARD] 
WRITE Address: AWADDR=0x0	 AWID=0x0	 AWLEN=b8	 AWSIZE=3	 AWBURST=3

UVM_INFO @ 555: uvm_test_top.env_inst.sb [SCOREBOARD] 
WRITE Data:	 WDATA=0x'{'h8ccd35fb}	 WSTRB=0xd	 WLAST=1

UVM_INFO @ 555: uvm_test_top.env_inst.sb [SCOREBOARD] 
WRITE Response:	 BID=0x0	 BRESP=0x0

UVM_INFO @ 565: uvm_test_top.env_inst.cov_model [COV_MODEL] Sampling read coverage for transaction: ARSIZE=0x0
UVM_INFO @ 565: uvm_test_top.env_inst.sb [SCOREBOARD] 
READ Address: ARADDR=0x0	 ARID=0x0	 ARLEN=0	 ARSIZE=0	 ARBURST=0

UVM_INFO @ 565: uvm_test_top.env_inst.sb [SCOREBOARD] 
READ Data: RDATA=0x0	 RRESP=0x0	 RLAST=0x0

UVM_INFO @ 595: uvm_test_top.env_inst.cov_model [COV_MODEL] Sampling write coverage for transaction: WSTRB=0xd, AWSIZE=0x3
UVM_INFO @ 595: uvm_test_top.env_inst.sb [SCOREBOARD] 
WRITE Address: AWADDR=0x0	 AWID=0x0	 AWLEN=b8	 AWSIZE=3	 AWBURST=3

UVM_INFO @ 595: uvm_test_top.env_inst.sb [SCOREBOARD] 
WRITE Data:	 WDATA=0x'{'h8ccd35fb}	 WSTRB=0xd	 WLAST=1

UVM_INFO @ 595: uvm_test_top.env_inst.sb [SCOREBOARD] 
WRITE Response:	 BID=0x0	 BRESP=0x0

UVM_INFO @ 605: uvm_test_top.env_inst.cov_model [COV_MODEL] Sampling read coverage for transaction: ARSIZE=0x0
UVM_INFO @ 605: uvm_test_top.env_inst.sb [SCOREBOARD] 
READ Address: ARADDR=0x0	 ARID=0x0	 ARLEN=0	 ARSIZE=0	 ARBURST=0

UVM_INFO @ 605: uvm_test_top.env_inst.sb [SCOREBOARD] 
READ Data: RDATA=0x0	 RRESP=0x0	 RLAST=0x0

UVM_INFO @ 635: uvm_test_top.env_inst.cov_model [COV_MODEL] Sampling write coverage for transaction: WSTRB=0xd, AWSIZE=0x3
UVM_INFO @ 635: uvm_test_top.env_inst.sb [SCOREBOARD] 
WRITE Address: AWADDR=0x0	 AWID=0x0	 AWLEN=b8	 AWSIZE=3	 AWBURST=3

UVM_INFO @ 635: uvm_test_top.env_inst.sb [SCOREBOARD] 
WRITE Data:	 WDATA=0x'{'h8ccd35fb}	 WSTRB=0xd	 WLAST=1

UVM_INFO @ 635: uvm_test_top.env_inst.sb [SCOREBOARD] 
WRITE Response:	 BID=0x0	 BRESP=0x0

UVM_INFO @ 645: uvm_test_top.env_inst.cov_model [COV_MODEL] Sampling read coverage for transaction: ARSIZE=0x0
UVM_INFO @ 645: uvm_test_top.env_inst.sb [SCOREBOARD] 
READ Address: ARADDR=0x0	 ARID=0x0	 ARLEN=0	 ARSIZE=0	 ARBURST=0

UVM_INFO @ 645: uvm_test_top.env_inst.sb [SCOREBOARD] 
READ Data: RDATA=0x0	 RRESP=0x0	 RLAST=0x0

UVM_INFO @ 675: uvm_test_top.env_inst.cov_model [COV_MODEL] Sampling write coverage for transaction: WSTRB=0xd, AWSIZE=0x3
UVM_INFO @ 675: uvm_test_top.env_inst.sb [SCOREBOARD] 
WRITE Address: AWADDR=0x0	 AWID=0x0	 AWLEN=b8	 AWSIZE=3	 AWBURST=3

UVM_INFO @ 675: uvm_test_top.env_inst.sb [SCOREBOARD] 
WRITE Data:	 WDATA=0x'{'h8ccd35fb}	 WSTRB=0xd	 WLAST=1

UVM_INFO @ 675: uvm_test_top.env_inst.sb [SCOREBOARD] 
WRITE Response:	 BID=0x0	 BRESP=0x0

UVM_INFO @ 685: uvm_test_top.env_inst.cov_model [COV_MODEL] Sampling read coverage for transaction: ARSIZE=0x0
UVM_INFO @ 685: uvm_test_top.env_inst.sb [SCOREBOARD] 
READ Address: ARADDR=0x0	 ARID=0x0	 ARLEN=0	 ARSIZE=0	 ARBURST=0

UVM_INFO @ 685: uvm_test_top.env_inst.sb [SCOREBOARD] 
READ Data: RDATA=0x0	 RRESP=0x0	 RLAST=0x0

UVM_INFO @ 715: uvm_test_top.env_inst.cov_model [COV_MODEL] Sampling write coverage for transaction: WSTRB=0xd, AWSIZE=0x3
UVM_INFO @ 715: uvm_test_top.env_inst.sb [SCOREBOARD] 
WRITE Address: AWADDR=0x0	 AWID=0x0	 AWLEN=b8	 AWSIZE=3	 AWBURST=3

UVM_INFO @ 715: uvm_test_top.env_inst.sb [SCOREBOARD] 
WRITE Data:	 WDATA=0x'{'h8ccd35fb}	 WSTRB=0xd	 WLAST=1

UVM_INFO @ 715: uvm_test_top.env_inst.sb [SCOREBOARD] 
WRITE Response:	 BID=0x0	 BRESP=0x0

UVM_INFO @ 725: uvm_test_top.env_inst.cov_model [COV_MODEL] Sampling read coverage for transaction: ARSIZE=0x0
UVM_INFO @ 725: uvm_test_top.env_inst.sb [SCOREBOARD] 
READ Address: ARADDR=0x0	 ARID=0x0	 ARLEN=0	 ARSIZE=0	 ARBURST=0

UVM_INFO @ 725: uvm_test_top.env_inst.sb [SCOREBOARD] 
READ Data: RDATA=0x0	 RRESP=0x0	 RLAST=0x0

UVM_INFO @ 755: uvm_test_top.env_inst.cov_model [COV_MODEL] Sampling write coverage for transaction: WSTRB=0xd, AWSIZE=0x3
UVM_INFO @ 755: uvm_test_top.env_inst.sb [SCOREBOARD] 
WRITE Address: AWADDR=0x0	 AWID=0x0	 AWLEN=b8	 AWSIZE=3	 AWBURST=3

UVM_INFO @ 755: uvm_test_top.env_inst.sb [SCOREBOARD] 
WRITE Data:	 WDATA=0x'{'h8ccd35fb}	 WSTRB=0xd	 WLAST=1

UVM_INFO @ 755: uvm_test_top.env_inst.sb [SCOREBOARD] 
WRITE Response:	 BID=0x0	 BRESP=0x0

UVM_INFO @ 765: uvm_test_top.env_inst.cov_model [COV_MODEL] Sampling read coverage for transaction: ARSIZE=0x0
UVM_INFO @ 765: uvm_test_top.env_inst.sb [SCOREBOARD] 
READ Address: ARADDR=0x0	 ARID=0x0	 ARLEN=0	 ARSIZE=0	 ARBURST=0

UVM_INFO @ 765: uvm_test_top.env_inst.sb [SCOREBOARD] 
READ Data: RDATA=0x0	 RRESP=0x0	 RLAST=0x0

UVM_INFO @ 795: uvm_test_top.env_inst.cov_model [COV_MODEL] Sampling write coverage for transaction: WSTRB=0xd, AWSIZE=0x3
UVM_INFO @ 795: uvm_test_top.env_inst.sb [SCOREBOARD] 
WRITE Address: AWADDR=0x0	 AWID=0x0	 AWLEN=b8	 AWSIZE=3	 AWBURST=3

UVM_INFO @ 795: uvm_test_top.env_inst.sb [SCOREBOARD] 
WRITE Data:	 WDATA=0x'{'h8ccd35fb}	 WSTRB=0xd	 WLAST=1

UVM_INFO @ 795: uvm_test_top.env_inst.sb [SCOREBOARD] 
WRITE Response:	 BID=0x0	 BRESP=0x0

UVM_INFO @ 805: uvm_test_top.env_inst.cov_model [COV_MODEL] Sampling read coverage for transaction: ARSIZE=0x0
UVM_INFO @ 805: uvm_test_top.env_inst.sb [SCOREBOARD] 
READ Address: ARADDR=0x0	 ARID=0x0	 ARLEN=0	 ARSIZE=0	 ARBURST=0

UVM_INFO @ 805: uvm_test_top.env_inst.sb [SCOREBOARD] 
READ Data: RDATA=0x0	 RRESP=0x0	 RLAST=0x0

UVM_INFO @ 835: uvm_test_top.env_inst.cov_model [COV_MODEL] Sampling write coverage for transaction: WSTRB=0xd, AWSIZE=0x3
UVM_INFO @ 835: uvm_test_top.env_inst.sb [SCOREBOARD] 
WRITE Address: AWADDR=0x0	 AWID=0x0	 AWLEN=b8	 AWSIZE=3	 AWBURST=3

UVM_INFO @ 835: uvm_test_top.env_inst.sb [SCOREBOARD] 
WRITE Data:	 WDATA=0x'{'h8ccd35fb}	 WSTRB=0xd	 WLAST=1

UVM_INFO @ 835: uvm_test_top.env_inst.sb [SCOREBOARD] 
WRITE Response:	 BID=0x0	 BRESP=0x0

UVM_INFO @ 845: uvm_test_top.env_inst.cov_model [COV_MODEL] Sampling read coverage for transaction: ARSIZE=0x0
UVM_INFO @ 845: uvm_test_top.env_inst.sb [SCOREBOARD] 
READ Address: ARADDR=0x0	 ARID=0x0	 ARLEN=0	 ARSIZE=0	 ARBURST=0

UVM_INFO @ 845: uvm_test_top.env_inst.sb [SCOREBOARD] 
READ Data: RDATA=0x0	 RRESP=0x0	 RLAST=0x0

UVM_INFO @ 875: uvm_test_top.env_inst.cov_model [COV_MODEL] Sampling write coverage for transaction: WSTRB=0xd, AWSIZE=0x3
UVM_INFO @ 875: uvm_test_top.env_inst.sb [SCOREBOARD] 
WRITE Address: AWADDR=0x0	 AWID=0x0	 AWLEN=b8	 AWSIZE=3	 AWBURST=3

UVM_INFO @ 875: uvm_test_top.env_inst.sb [SCOREBOARD] 
WRITE Data:	 WDATA=0x'{'h8ccd35fb}	 WSTRB=0xd	 WLAST=1

UVM_INFO @ 875: uvm_test_top.env_inst.sb [SCOREBOARD] 
WRITE Response:	 BID=0x0	 BRESP=0x0

UVM_INFO @ 885: uvm_test_top.env_inst.cov_model [COV_MODEL] Sampling read coverage for transaction: ARSIZE=0x0
UVM_INFO @ 885: uvm_test_top.env_inst.sb [SCOREBOARD] 
READ Address: ARADDR=0x0	 ARID=0x0	 ARLEN=0	 ARSIZE=0	 ARBURST=0

UVM_INFO @ 885: uvm_test_top.env_inst.sb [SCOREBOARD] 
READ Data: RDATA=0x0	 RRESP=0x0	 RLAST=0x0

UVM_INFO @ 915: uvm_test_top.env_inst.cov_model [COV_MODEL] Sampling write coverage for transaction: WSTRB=0xd, AWSIZE=0x3
UVM_INFO @ 915: uvm_test_top.env_inst.sb [SCOREBOARD] 
WRITE Address: AWADDR=0x0	 AWID=0x0	 AWLEN=b8	 AWSIZE=3	 AWBURST=3

UVM_INFO @ 915: uvm_test_top.env_inst.sb [SCOREBOARD] 
WRITE Data:	 WDATA=0x'{'h8ccd35fb}	 WSTRB=0xd	 WLAST=1

UVM_INFO @ 915: uvm_test_top.env_inst.sb [SCOREBOARD] 
WRITE Response:	 BID=0x0	 BRESP=0x0

UVM_INFO @ 925: uvm_test_top.env_inst.cov_model [COV_MODEL] Sampling read coverage for transaction: ARSIZE=0x0
UVM_INFO @ 925: uvm_test_top.env_inst.sb [SCOREBOARD] 
READ Address: ARADDR=0x0	 ARID=0x0	 ARLEN=0	 ARSIZE=0	 ARBURST=0

UVM_INFO @ 925: uvm_test_top.env_inst.sb [SCOREBOARD] 
READ Data: RDATA=0x0	 RRESP=0x0	 RLAST=0x0

UVM_INFO @ 955: uvm_test_top.env_inst.cov_model [COV_MODEL] Sampling write coverage for transaction: WSTRB=0xd, AWSIZE=0x3
UVM_INFO @ 955: uvm_test_top.env_inst.sb [SCOREBOARD] 
WRITE Address: AWADDR=0x0	 AWID=0x0	 AWLEN=b8	 AWSIZE=3	 AWBURST=3

UVM_INFO @ 955: uvm_test_top.env_inst.sb [SCOREBOARD] 
WRITE Data:	 WDATA=0x'{'h8ccd35fb}	 WSTRB=0xd	 WLAST=1

UVM_INFO @ 955: uvm_test_top.env_inst.sb [SCOREBOARD] 
WRITE Response:	 BID=0x0	 BRESP=0x0

UVM_INFO @ 965: uvm_test_top.env_inst.cov_model [COV_MODEL] Sampling read coverage for transaction: ARSIZE=0x0
UVM_INFO @ 965: uvm_test_top.env_inst.sb [SCOREBOARD] 
READ Address: ARADDR=0x0	 ARID=0x0	 ARLEN=0	 ARSIZE=0	 ARBURST=0

UVM_INFO @ 965: uvm_test_top.env_inst.sb [SCOREBOARD] 
READ Data: RDATA=0x0	 RRESP=0x0	 RLAST=0x0

UVM_INFO @ 995: uvm_test_top.env_inst.cov_model [COV_MODEL] Sampling write coverage for transaction: WSTRB=0xd, AWSIZE=0x3
UVM_INFO @ 995: uvm_test_top.env_inst.sb [SCOREBOARD] 
WRITE Address: AWADDR=0x0	 AWID=0x0	 AWLEN=b8	 AWSIZE=3	 AWBURST=3

UVM_INFO @ 995: uvm_test_top.env_inst.sb [SCOREBOARD] 
WRITE Data:	 WDATA=0x'{'h8ccd35fb}	 WSTRB=0xd	 WLAST=1

UVM_INFO @ 995: uvm_test_top.env_inst.sb [SCOREBOARD] 
WRITE Response:	 BID=0x0	 BRESP=0x0

UVM_INFO @ 1005: uvm_test_top.env_inst.cov_model [COV_MODEL] Sampling read coverage for transaction: ARSIZE=0x0
UVM_INFO @ 1005: uvm_test_top.env_inst.sb [SCOREBOARD] 
READ Address: ARADDR=0x0	 ARID=0x0	 ARLEN=0	 ARSIZE=0	 ARBURST=0

UVM_INFO @ 1005: uvm_test_top.env_inst.sb [SCOREBOARD] 
READ Data: RDATA=0x0	 RRESP=0x0	 RLAST=0x0

UVM_INFO @ 1035: uvm_test_top.env_inst.cov_model [COV_MODEL] Sampling write coverage for transaction: WSTRB=0xd, AWSIZE=0x3
UVM_INFO @ 1035: uvm_test_top.env_inst.sb [SCOREBOARD] 
WRITE Address: AWADDR=0x0	 AWID=0x0	 AWLEN=b8	 AWSIZE=3	 AWBURST=3

UVM_INFO @ 1035: uvm_test_top.env_inst.sb [SCOREBOARD] 
WRITE Data:	 WDATA=0x'{'h8ccd35fb}	 WSTRB=0xd	 WLAST=1

UVM_INFO @ 1035: uvm_test_top.env_inst.sb [SCOREBOARD] 
WRITE Response:	 BID=0x0	 BRESP=0x0

UVM_INFO @ 1045: uvm_test_top.env_inst.cov_model [COV_MODEL] Sampling read coverage for transaction: ARSIZE=0x0
UVM_INFO @ 1045: uvm_test_top.env_inst.sb [SCOREBOARD] 
READ Address: ARADDR=0x0	 ARID=0x0	 ARLEN=0	 ARSIZE=0	 ARBURST=0

UVM_INFO @ 1045: uvm_test_top.env_inst.sb [SCOREBOARD] 
READ Data: RDATA=0x0	 RRESP=0x0	 RLAST=0x0

UVM_INFO @ 1075: uvm_test_top.env_inst.cov_model [COV_MODEL] Sampling write coverage for transaction: WSTRB=0xd, AWSIZE=0x3
UVM_INFO @ 1075: uvm_test_top.env_inst.sb [SCOREBOARD] 
WRITE Address: AWADDR=0x0	 AWID=0x0	 AWLEN=b8	 AWSIZE=3	 AWBURST=3

UVM_INFO @ 1075: uvm_test_top.env_inst.sb [SCOREBOARD] 
WRITE Data:	 WDATA=0x'{'h8ccd35fb}	 WSTRB=0xd	 WLAST=1

UVM_INFO @ 1075: uvm_test_top.env_inst.sb [SCOREBOARD] 
WRITE Response:	 BID=0x0	 BRESP=0x0

UVM_INFO @ 1085: uvm_test_top.env_inst.cov_model [COV_MODEL] Sampling read coverage for transaction: ARSIZE=0x0
UVM_INFO @ 1085: uvm_test_top.env_inst.sb [SCOREBOARD] 
READ Address: ARADDR=0x0	 ARID=0x0	 ARLEN=0	 ARSIZE=0	 ARBURST=0

UVM_INFO @ 1085: uvm_test_top.env_inst.sb [SCOREBOARD] 
READ Data: RDATA=0x0	 RRESP=0x0	 RLAST=0x0

UVM_INFO @ 1105: reporter [TEST_DONE] 'run' phase is ready to proceed to the 'extract' phase
UVM_INFO @ 1105: uvm_test_top.env_inst.sb [HANDSHAKE_CHECK] Checking 26 write transactions
UVM_INFO @ 1105: uvm_test_top.env_inst.sb [HANDSHAKE_CHECK] Checking 26 read transactions
UVM_WARNING @ 1105: uvm_test_top.env_inst.sb [HANDSHAKE_CHECK] No active handshakes detected - check if monitor is capturing valid handshake attempts
UVM_INFO @ 1105: uvm_test_top.env_inst.sb [CHECKER - AW/AR_CHANNEL] 
PASS: AWADDR=0x0	 ARADDR=0x0	 AWID=0x0	 ARID=0x0

UVM_INFO @ 1105: uvm_test_top.env_inst.sb [CHECKER - AW/AR_CHANNEL] 
PASS: AWLEN=0	 ARLEN=0	 AWSIZE=0	 ARSIZE=0	 AWBURST=0	 ARBURST=0

UVM_ERROR @ 1105: uvm_test_top.env_inst.sb [CHECKER - W/R_CHANNEL] 
MISSING DATA:	 WDATA.size=0	 RDATA.size=1

UVM_INFO @ 1105: uvm_test_top.env_inst.sb [CHECKER - B_CHANNEL] Note: BVALID or BREADY not asserted during response, skipping check
UVM_INFO @ 1105: uvm_test_top.env_inst.sb [CHECKER - R_CHANNEL] Note: RVALID, RREADY, or RLAST not asserted, skipping check
UVM_INFO @ 1105: uvm_test_top.env_inst.sb [CHECKER - AW/AR_CHANNEL] 
PASS: AWADDR=0x0	 ARADDR=0x0	 AWID=0x0	 ARID=0x0

UVM_ERROR @ 1105: uvm_test_top.env_inst.sb [CHECKER - AW/AR_CHANNEL] 
LEN MISMATCH: AWLEN=184	 ARLEN=0

UVM_ERROR @ 1105: uvm_test_top.env_inst.sb [CHECKER - AW/AR_CHANNEL] 
SIZE MISMATCH: AWSIZE=3	 ARSIZE=0

UVM_ERROR @ 1105: uvm_test_top.env_inst.sb [CHECKER - AW/AR_CHANNEL] 
BURST MISMATCH: AWBURST=3	 ARBURST=0

UVM_ERROR @ 1105: uvm_test_top.env_inst.sb [CHECKER - W/R_CHANNEL] 
DATA MISMATCH:	 Index=0	 WDATA=0x8ccd35fb	 RDATA=0x0

UVM_INFO @ 1105: uvm_test_top.env_inst.sb [CHECKER - B_CHANNEL] Note: BVALID or BREADY not asserted during response, skipping check
UVM_INFO @ 1105: uvm_test_top.env_inst.sb [CHECKER - R_CHANNEL] Note: RVALID, RREADY, or RLAST not asserted, skipping check
UVM_INFO @ 1105: uvm_test_top.env_inst.sb [CHECKER - AW/AR_CHANNEL] 
PASS: AWADDR=0x0	 ARADDR=0x0	 AWID=0x0	 ARID=0x0

UVM_ERROR @ 1105: uvm_test_top.env_inst.sb [CHECKER - AW/AR_CHANNEL] 
LEN MISMATCH: AWLEN=184	 ARLEN=0

UVM_ERROR @ 1105: uvm_test_top.env_inst.sb [CHECKER - AW/AR_CHANNEL] 
SIZE MISMATCH: AWSIZE=3	 ARSIZE=0

UVM_ERROR @ 1105: uvm_test_top.env_inst.sb [CHECKER - AW/AR_CHANNEL] 
BURST MISMATCH: AWBURST=3	 ARBURST=0

UVM_ERROR @ 1105: uvm_test_top.env_inst.sb [CHECKER - W/R_CHANNEL] 
DATA MISMATCH:	 Index=0	 WDATA=0x8ccd35fb	 RDATA=0x0

UVM_INFO @ 1105: uvm_test_top.env_inst.sb [CHECKER - B_CHANNEL] Note: BVALID or BREADY not asserted during response, skipping check
UVM_INFO @ 1105: uvm_test_top.env_inst.sb [CHECKER - R_CHANNEL] Note: RVALID, RREADY, or RLAST not asserted, skipping check
UVM_INFO @ 1105: uvm_test_top.env_inst.sb [CHECKER - AW/AR_CHANNEL] 
PASS: AWADDR=0x0	 ARADDR=0x0	 AWID=0x0	 ARID=0x0

UVM_ERROR @ 1105: uvm_test_top.env_inst.sb [CHECKER - AW/AR_CHANNEL] 
LEN MISMATCH: AWLEN=184	 ARLEN=0

UVM_ERROR @ 1105: uvm_test_top.env_inst.sb [CHECKER - AW/AR_CHANNEL] 
SIZE MISMATCH: AWSIZE=3	 ARSIZE=0

UVM_ERROR @ 1105: uvm_test_top.env_inst.sb [CHECKER - AW/AR_CHANNEL] 
BURST MISMATCH: AWBURST=3	 ARBURST=0

UVM_ERROR @ 1105: uvm_test_top.env_inst.sb [CHECKER - W/R_CHANNEL] 
DATA MISMATCH:	 Index=0	 WDATA=0x8ccd35fb	 RDATA=0x0

UVM_INFO @ 1105: uvm_test_top.env_inst.sb [CHECKER - B_CHANNEL] Note: BVALID or BREADY not asserted during response, skipping check
UVM_INFO @ 1105: uvm_test_top.env_inst.sb [CHECKER - R_CHANNEL] Note: RVALID, RREADY, or RLAST not asserted, skipping check
UVM_INFO @ 1105: uvm_test_top.env_inst.sb [CHECKER - AW/AR_CHANNEL] 
PASS: AWADDR=0x0	 ARADDR=0x0	 AWID=0x0	 ARID=0x0

UVM_ERROR @ 1105: uvm_test_top.env_inst.sb [CHECKER - AW/AR_CHANNEL] 
LEN MISMATCH: AWLEN=184	 ARLEN=0

UVM_ERROR @ 1105: uvm_test_top.env_inst.sb [CHECKER - AW/AR_CHANNEL] 
SIZE MISMATCH: AWSIZE=3	 ARSIZE=0

UVM_ERROR @ 1105: uvm_test_top.env_inst.sb [CHECKER - AW/AR_CHANNEL] 
BURST MISMATCH: AWBURST=3	 ARBURST=0

UVM_ERROR @ 1105: uvm_test_top.env_inst.sb [CHECKER - W/R_CHANNEL] 
DATA MISMATCH:	 Index=0	 WDATA=0x8ccd35fb	 RDATA=0x0

UVM_INFO @ 1105: uvm_test_top.env_inst.sb [CHECKER - B_CHANNEL] Note: BVALID or BREADY not asserted during response, skipping check
UVM_INFO @ 1105: uvm_test_top.env_inst.sb [CHECKER - R_CHANNEL] Note: RVALID, RREADY, or RLAST not asserted, skipping check
UVM_INFO @ 1105: uvm_test_top.env_inst.sb [CHECKER - AW/AR_CHANNEL] 
PASS: AWADDR=0x0	 ARADDR=0x0	 AWID=0x0	 ARID=0x0

UVM_ERROR @ 1105: uvm_test_top.env_inst.sb [CHECKER - AW/AR_CHANNEL] 
LEN MISMATCH: AWLEN=184	 ARLEN=0

UVM_ERROR @ 1105: uvm_test_top.env_inst.sb [CHECKER - AW/AR_CHANNEL] 
SIZE MISMATCH: AWSIZE=3	 ARSIZE=0

UVM_ERROR @ 1105: uvm_test_top.env_inst.sb [CHECKER - AW/AR_CHANNEL] 
BURST MISMATCH: AWBURST=3	 ARBURST=0

UVM_ERROR @ 1105: uvm_test_top.env_inst.sb [CHECKER - W/R_CHANNEL] 
DATA MISMATCH:	 Index=0	 WDATA=0x8ccd35fb	 RDATA=0x0

UVM_INFO @ 1105: uvm_test_top.env_inst.sb [CHECKER - B_CHANNEL] Note: BVALID or BREADY not asserted during response, skipping check
UVM_INFO @ 1105: uvm_test_top.env_inst.sb [CHECKER - R_CHANNEL] Note: RVALID, RREADY, or RLAST not asserted, skipping check
UVM_INFO @ 1105: uvm_test_top.env_inst.sb [CHECKER - AW/AR_CHANNEL] 
PASS: AWADDR=0x0	 ARADDR=0x0	 AWID=0x0	 ARID=0x0

UVM_ERROR @ 1105: uvm_test_top.env_inst.sb [CHECKER - AW/AR_CHANNEL] 
LEN MISMATCH: AWLEN=184	 ARLEN=0

UVM_ERROR @ 1105: uvm_test_top.env_inst.sb [CHECKER - AW/AR_CHANNEL] 
SIZE MISMATCH: AWSIZE=3	 ARSIZE=0

UVM_ERROR @ 1105: uvm_test_top.env_inst.sb [CHECKER - AW/AR_CHANNEL] 
BURST MISMATCH: AWBURST=3	 ARBURST=0

UVM_ERROR @ 1105: uvm_test_top.env_inst.sb [CHECKER - W/R_CHANNEL] 
DATA MISMATCH:	 Index=0	 WDATA=0x8ccd35fb	 RDATA=0x0

UVM_INFO @ 1105: uvm_test_top.env_inst.sb [CHECKER - B_CHANNEL] Note: BVALID or BREADY not asserted during response, skipping check
UVM_INFO @ 1105: uvm_test_top.env_inst.sb [CHECKER - R_CHANNEL] Note: RVALID, RREADY, or RLAST not asserted, skipping check
UVM_INFO @ 1105: uvm_test_top.env_inst.sb [CHECKER - AW/AR_CHANNEL] 
PASS: AWADDR=0x0	 ARADDR=0x0	 AWID=0x0	 ARID=0x0

UVM_ERROR @ 1105: uvm_test_top.env_inst.sb [CHECKER - AW/AR_CHANNEL] 
LEN MISMATCH: AWLEN=184	 ARLEN=0

UVM_ERROR @ 1105: uvm_test_top.env_inst.sb [CHECKER - AW/AR_CHANNEL] 
SIZE MISMATCH: AWSIZE=3	 ARSIZE=0

UVM_ERROR @ 1105: uvm_test_top.env_inst.sb [CHECKER - AW/AR_CHANNEL] 
BURST MISMATCH: AWBURST=3	 ARBURST=0

UVM_ERROR @ 1105: uvm_test_top.env_inst.sb [CHECKER - W/R_CHANNEL] 
DATA MISMATCH:	 Index=0	 WDATA=0x8ccd35fb	 RDATA=0x0

UVM_INFO @ 1105: uvm_test_top.env_inst.sb [CHECKER - B_CHANNEL] Note: BVALID or BREADY not asserted during response, skipping check
UVM_INFO @ 1105: uvm_test_top.env_inst.sb [CHECKER - R_CHANNEL] Note: RVALID, RREADY, or RLAST not asserted, skipping check
UVM_INFO @ 1105: uvm_test_top.env_inst.sb [CHECKER - AW/AR_CHANNEL] 
PASS: AWADDR=0x0	 ARADDR=0x0	 AWID=0x0	 ARID=0x0

UVM_ERROR @ 1105: uvm_test_top.env_inst.sb [CHECKER - AW/AR_CHANNEL] 
LEN MISMATCH: AWLEN=184	 ARLEN=0

UVM_ERROR @ 1105: uvm_test_top.env_inst.sb [CHECKER - AW/AR_CHANNEL] 
SIZE MISMATCH: AWSIZE=3	 ARSIZE=0

UVM_ERROR @ 1105: uvm_test_top.env_inst.sb [CHECKER - AW/AR_CHANNEL] 
BURST MISMATCH: AWBURST=3	 ARBURST=0

UVM_ERROR @ 1105: uvm_test_top.env_inst.sb [CHECKER - W/R_CHANNEL] 
DATA MISMATCH:	 Index=0	 WDATA=0x8ccd35fb	 RDATA=0x0

UVM_INFO @ 1105: uvm_test_top.env_inst.sb [CHECKER - B_CHANNEL] Note: BVALID or BREADY not asserted during response, skipping check
UVM_INFO @ 1105: uvm_test_top.env_inst.sb [CHECKER - R_CHANNEL] Note: RVALID, RREADY, or RLAST not asserted, skipping check
UVM_INFO @ 1105: uvm_test_top.env_inst.sb [CHECKER - AW/AR_CHANNEL] 
PASS: AWADDR=0x0	 ARADDR=0x0	 AWID=0x0	 ARID=0x0

UVM_ERROR @ 1105: uvm_test_top.env_inst.sb [CHECKER - AW/AR_CHANNEL] 
LEN MISMATCH: AWLEN=184	 ARLEN=0

UVM_ERROR @ 1105: uvm_test_top.env_inst.sb [CHECKER - AW/AR_CHANNEL] 
SIZE MISMATCH: AWSIZE=3	 ARSIZE=0

UVM_ERROR @ 1105: uvm_test_top.env_inst.sb [CHECKER - AW/AR_CHANNEL] 
BURST MISMATCH: AWBURST=3	 ARBURST=0

UVM_ERROR @ 1105: uvm_test_top.env_inst.sb [CHECKER - W/R_CHANNEL] 
DATA MISMATCH:	 Index=0	 WDATA=0x8ccd35fb	 RDATA=0x0

UVM_INFO @ 1105: uvm_test_top.env_inst.sb [CHECKER - B_CHANNEL] Note: BVALID or BREADY not asserted during response, skipping check
UVM_INFO @ 1105: uvm_test_top.env_inst.sb [CHECKER - R_CHANNEL] Note: RVALID, RREADY, or RLAST not asserted, skipping check
UVM_INFO @ 1105: uvm_test_top.env_inst.sb [CHECKER - AW/AR_CHANNEL] 
PASS: AWADDR=0x0	 ARADDR=0x0	 AWID=0x0	 ARID=0x0

UVM_ERROR @ 1105: uvm_test_top.env_inst.sb [CHECKER - AW/AR_CHANNEL] 
LEN MISMATCH: AWLEN=184	 ARLEN=0

UVM_ERROR @ 1105: uvm_test_top.env_inst.sb [CHECKER - AW/AR_CHANNEL] 
SIZE MISMATCH: AWSIZE=3	 ARSIZE=0

UVM_ERROR @ 1105: uvm_test_top.env_inst.sb [CHECKER - AW/AR_CHANNEL] 
BURST MISMATCH: AWBURST=3	 ARBURST=0

UVM_ERROR @ 1105: uvm_test_top.env_inst.sb [CHECKER - W/R_CHANNEL] 
DATA MISMATCH:	 Index=0	 WDATA=0x8ccd35fb	 RDATA=0x0

UVM_INFO @ 1105: uvm_test_top.env_inst.sb [CHECKER - B_CHANNEL] Note: BVALID or BREADY not asserted during response, skipping check
UVM_INFO @ 1105: uvm_test_top.env_inst.sb [CHECKER - R_CHANNEL] Note: RVALID, RREADY, or RLAST not asserted, skipping check
UVM_INFO @ 1105: uvm_test_top.env_inst.sb [CHECKER - AW/AR_CHANNEL] 
PASS: AWADDR=0x0	 ARADDR=0x0	 AWID=0x0	 ARID=0x0

UVM_ERROR @ 1105: uvm_test_top.env_inst.sb [CHECKER - AW/AR_CHANNEL] 
LEN MISMATCH: AWLEN=184	 ARLEN=0

UVM_ERROR @ 1105: uvm_test_top.env_inst.sb [CHECKER - AW/AR_CHANNEL] 
SIZE MISMATCH: AWSIZE=3	 ARSIZE=0

UVM_ERROR @ 1105: uvm_test_top.env_inst.sb [CHECKER - AW/AR_CHANNEL] 
BURST MISMATCH: AWBURST=3	 ARBURST=0

UVM_ERROR @ 1105: uvm_test_top.env_inst.sb [CHECKER - W/R_CHANNEL] 
DATA MISMATCH:	 Index=0	 WDATA=0x8ccd35fb	 RDATA=0x0

UVM_INFO @ 1105: uvm_test_top.env_inst.sb [CHECKER - B_CHANNEL] Note: BVALID or BREADY not asserted during response, skipping check
UVM_INFO @ 1105: uvm_test_top.env_inst.sb [CHECKER - R_CHANNEL] Note: RVALID, RREADY, or RLAST not asserted, skipping check
UVM_INFO @ 1105: uvm_test_top.env_inst.sb [CHECKER - AW/AR_CHANNEL] 
PASS: AWADDR=0x0	 ARADDR=0x0	 AWID=0x0	 ARID=0x0

UVM_ERROR @ 1105: uvm_test_top.env_inst.sb [CHECKER - AW/AR_CHANNEL] 
LEN MISMATCH: AWLEN=184	 ARLEN=0

UVM_ERROR @ 1105: uvm_test_top.env_inst.sb [CHECKER - AW/AR_CHANNEL] 
SIZE MISMATCH: AWSIZE=3	 ARSIZE=0

UVM_ERROR @ 1105: uvm_test_top.env_inst.sb [CHECKER - AW/AR_CHANNEL] 
BURST MISMATCH: AWBURST=3	 ARBURST=0

UVM_ERROR @ 1105: uvm_test_top.env_inst.sb [CHECKER - W/R_CHANNEL] 
DATA MISMATCH:	 Index=0	 WDATA=0x8ccd35fb	 RDATA=0x0

UVM_INFO @ 1105: uvm_test_top.env_inst.sb [CHECKER - B_CHANNEL] Note: BVALID or BREADY not asserted during response, skipping check
UVM_INFO @ 1105: uvm_test_top.env_inst.sb [CHECKER - R_CHANNEL] Note: RVALID, RREADY, or RLAST not asserted, skipping check
UVM_INFO @ 1105: uvm_test_top.env_inst.sb [CHECKER - AW/AR_CHANNEL] 
PASS: AWADDR=0x0	 ARADDR=0x0	 AWID=0x0	 ARID=0x0

UVM_ERROR @ 1105: uvm_test_top.env_inst.sb [CHECKER - AW/AR_CHANNEL] 
LEN MISMATCH: AWLEN=184	 ARLEN=0

UVM_ERROR @ 1105: uvm_test_top.env_inst.sb [CHECKER - AW/AR_CHANNEL] 
SIZE MISMATCH: AWSIZE=3	 ARSIZE=0

UVM_ERROR @ 1105: uvm_test_top.env_inst.sb [CHECKER - AW/AR_CHANNEL] 
BURST MISMATCH: AWBURST=3	 ARBURST=0

UVM_ERROR @ 1105: uvm_test_top.env_inst.sb [CHECKER - W/R_CHANNEL] 
DATA MISMATCH:	 Index=0	 WDATA=0x8ccd35fb	 RDATA=0x0

UVM_INFO @ 1105: uvm_test_top.env_inst.sb [CHECKER - B_CHANNEL] Note: BVALID or BREADY not asserted during response, skipping check
UVM_INFO @ 1105: uvm_test_top.env_inst.sb [CHECKER - R_CHANNEL] Note: RVALID, RREADY, or RLAST not asserted, skipping check
UVM_INFO @ 1105: uvm_test_top.env_inst.sb [CHECKER - AW/AR_CHANNEL] 
PASS: AWADDR=0x0	 ARADDR=0x0	 AWID=0x0	 ARID=0x0

UVM_ERROR @ 1105: uvm_test_top.env_inst.sb [CHECKER - AW/AR_CHANNEL] 
LEN MISMATCH: AWLEN=184	 ARLEN=0

UVM_ERROR @ 1105: uvm_test_top.env_inst.sb [CHECKER - AW/AR_CHANNEL] 
SIZE MISMATCH: AWSIZE=3	 ARSIZE=0

UVM_ERROR @ 1105: uvm_test_top.env_inst.sb [CHECKER - AW/AR_CHANNEL] 
BURST MISMATCH: AWBURST=3	 ARBURST=0

UVM_ERROR @ 1105: uvm_test_top.env_inst.sb [CHECKER - W/R_CHANNEL] 
DATA MISMATCH:	 Index=0	 WDATA=0x8ccd35fb	 RDATA=0x0

UVM_INFO @ 1105: uvm_test_top.env_inst.sb [CHECKER - B_CHANNEL] Note: BVALID or BREADY not asserted during response, skipping check
UVM_INFO @ 1105: uvm_test_top.env_inst.sb [CHECKER - R_CHANNEL] Note: RVALID, RREADY, or RLAST not asserted, skipping check
UVM_INFO @ 1105: uvm_test_top.env_inst.sb [CHECKER - AW/AR_CHANNEL] 
PASS: AWADDR=0x0	 ARADDR=0x0	 AWID=0x0	 ARID=0x0

UVM_ERROR @ 1105: uvm_test_top.env_inst.sb [CHECKER - AW/AR_CHANNEL] 
LEN MISMATCH: AWLEN=184	 ARLEN=0

UVM_ERROR @ 1105: uvm_test_top.env_inst.sb [CHECKER - AW/AR_CHANNEL] 
SIZE MISMATCH: AWSIZE=3	 ARSIZE=0

UVM_ERROR @ 1105: uvm_test_top.env_inst.sb [CHECKER - AW/AR_CHANNEL] 
BURST MISMATCH: AWBURST=3	 ARBURST=0

UVM_ERROR @ 1105: uvm_test_top.env_inst.sb [CHECKER - W/R_CHANNEL] 
DATA MISMATCH:	 Index=0	 WDATA=0x8ccd35fb	 RDATA=0x0

UVM_INFO @ 1105: uvm_test_top.env_inst.sb [CHECKER - B_CHANNEL] Note: BVALID or BREADY not asserted during response, skipping check
UVM_INFO @ 1105: uvm_test_top.env_inst.sb [CHECKER - R_CHANNEL] Note: RVALID, RREADY, or RLAST not asserted, skipping check
UVM_INFO @ 1105: uvm_test_top.env_inst.sb [CHECKER - AW/AR_CHANNEL] 
PASS: AWADDR=0x0	 ARADDR=0x0	 AWID=0x0	 ARID=0x0

UVM_ERROR @ 1105: uvm_test_top.env_inst.sb [CHECKER - AW/AR_CHANNEL] 
LEN MISMATCH: AWLEN=184	 ARLEN=0

UVM_ERROR @ 1105: uvm_test_top.env_inst.sb [CHECKER - AW/AR_CHANNEL] 
SIZE MISMATCH: AWSIZE=3	 ARSIZE=0

UVM_ERROR @ 1105: uvm_test_top.env_inst.sb [CHECKER - AW/AR_CHANNEL] 
BURST MISMATCH: AWBURST=3	 ARBURST=0

UVM_ERROR @ 1105: uvm_test_top.env_inst.sb [CHECKER - W/R_CHANNEL] 
DATA MISMATCH:	 Index=0	 WDATA=0x8ccd35fb	 RDATA=0x0

UVM_INFO @ 1105: uvm_test_top.env_inst.sb [CHECKER - B_CHANNEL] Note: BVALID or BREADY not asserted during response, skipping check
UVM_INFO @ 1105: uvm_test_top.env_inst.sb [CHECKER - R_CHANNEL] Note: RVALID, RREADY, or RLAST not asserted, skipping check
UVM_INFO @ 1105: uvm_test_top.env_inst.sb [CHECKER - AW/AR_CHANNEL] 
PASS: AWADDR=0x0	 ARADDR=0x0	 AWID=0x0	 ARID=0x0

UVM_ERROR @ 1105: uvm_test_top.env_inst.sb [CHECKER - AW/AR_CHANNEL] 
LEN MISMATCH: AWLEN=184	 ARLEN=0

UVM_ERROR @ 1105: uvm_test_top.env_inst.sb [CHECKER - AW/AR_CHANNEL] 
SIZE MISMATCH: AWSIZE=3	 ARSIZE=0

UVM_ERROR @ 1105: uvm_test_top.env_inst.sb [CHECKER - AW/AR_CHANNEL] 
BURST MISMATCH: AWBURST=3	 ARBURST=0

UVM_ERROR @ 1105: uvm_test_top.env_inst.sb [CHECKER - W/R_CHANNEL] 
DATA MISMATCH:	 Index=0	 WDATA=0x8ccd35fb	 RDATA=0x0

UVM_INFO @ 1105: uvm_test_top.env_inst.sb [CHECKER - B_CHANNEL] Note: BVALID or BREADY not asserted during response, skipping check
UVM_INFO @ 1105: uvm_test_top.env_inst.sb [CHECKER - R_CHANNEL] Note: RVALID, RREADY, or RLAST not asserted, skipping check
UVM_INFO @ 1105: uvm_test_top.env_inst.sb [CHECKER - AW/AR_CHANNEL] 
PASS: AWADDR=0x0	 ARADDR=0x0	 AWID=0x0	 ARID=0x0

UVM_ERROR @ 1105: uvm_test_top.env_inst.sb [CHECKER - AW/AR_CHANNEL] 
LEN MISMATCH: AWLEN=184	 ARLEN=0

UVM_ERROR @ 1105: uvm_test_top.env_inst.sb [CHECKER - AW/AR_CHANNEL] 
SIZE MISMATCH: AWSIZE=3	 ARSIZE=0

UVM_ERROR @ 1105: uvm_test_top.env_inst.sb [CHECKER - AW/AR_CHANNEL] 
BURST MISMATCH: AWBURST=3	 ARBURST=0

UVM_ERROR @ 1105: uvm_test_top.env_inst.sb [CHECKER - W/R_CHANNEL] 
DATA MISMATCH:	 Index=0	 WDATA=0x8ccd35fb	 RDATA=0x0

UVM_INFO @ 1105: uvm_test_top.env_inst.sb [CHECKER - B_CHANNEL] Note: BVALID or BREADY not asserted during response, skipping check
UVM_INFO @ 1105: uvm_test_top.env_inst.sb [CHECKER - R_CHANNEL] Note: RVALID, RREADY, or RLAST not asserted, skipping check
UVM_INFO @ 1105: uvm_test_top.env_inst.sb [CHECKER - AW/AR_CHANNEL] 
PASS: AWADDR=0x0	 ARADDR=0x0	 AWID=0x0	 ARID=0x0

UVM_ERROR @ 1105: uvm_test_top.env_inst.sb [CHECKER - AW/AR_CHANNEL] 
LEN MISMATCH: AWLEN=184	 ARLEN=0

UVM_ERROR @ 1105: uvm_test_top.env_inst.sb [CHECKER - AW/AR_CHANNEL] 
SIZE MISMATCH: AWSIZE=3	 ARSIZE=0

UVM_ERROR @ 1105: uvm_test_top.env_inst.sb [CHECKER - AW/AR_CHANNEL] 
BURST MISMATCH: AWBURST=3	 ARBURST=0

UVM_ERROR @ 1105: uvm_test_top.env_inst.sb [CHECKER - W/R_CHANNEL] 
DATA MISMATCH:	 Index=0	 WDATA=0x8ccd35fb	 RDATA=0x0

UVM_INFO @ 1105: uvm_test_top.env_inst.sb [CHECKER - B_CHANNEL] Note: BVALID or BREADY not asserted during response, skipping check
UVM_INFO @ 1105: uvm_test_top.env_inst.sb [CHECKER - R_CHANNEL] Note: RVALID, RREADY, or RLAST not asserted, skipping check
UVM_INFO @ 1105: uvm_test_top.env_inst.sb [CHECKER - AW/AR_CHANNEL] 
PASS: AWADDR=0x0	 ARADDR=0x0	 AWID=0x0	 ARID=0x0

UVM_ERROR @ 1105: uvm_test_top.env_inst.sb [CHECKER - AW/AR_CHANNEL] 
LEN MISMATCH: AWLEN=184	 ARLEN=0

UVM_ERROR @ 1105: uvm_test_top.env_inst.sb [CHECKER - AW/AR_CHANNEL] 
SIZE MISMATCH: AWSIZE=3	 ARSIZE=0

UVM_ERROR @ 1105: uvm_test_top.env_inst.sb [CHECKER - AW/AR_CHANNEL] 
BURST MISMATCH: AWBURST=3	 ARBURST=0

UVM_ERROR @ 1105: uvm_test_top.env_inst.sb [CHECKER - W/R_CHANNEL] 
DATA MISMATCH:	 Index=0	 WDATA=0x8ccd35fb	 RDATA=0x0

UVM_INFO @ 1105: uvm_test_top.env_inst.sb [CHECKER - B_CHANNEL] Note: BVALID or BREADY not asserted during response, skipping check
UVM_INFO @ 1105: uvm_test_top.env_inst.sb [CHECKER - R_CHANNEL] Note: RVALID, RREADY, or RLAST not asserted, skipping check
UVM_INFO @ 1105: uvm_test_top.env_inst.sb [CHECKER - AW/AR_CHANNEL] 
PASS: AWADDR=0x0	 ARADDR=0x0	 AWID=0x0	 ARID=0x0

UVM_ERROR @ 1105: uvm_test_top.env_inst.sb [CHECKER - AW/AR_CHANNEL] 
LEN MISMATCH: AWLEN=184	 ARLEN=0

UVM_ERROR @ 1105: uvm_test_top.env_inst.sb [CHECKER - AW/AR_CHANNEL] 
SIZE MISMATCH: AWSIZE=3	 ARSIZE=0

UVM_ERROR @ 1105: uvm_test_top.env_inst.sb [CHECKER - AW/AR_CHANNEL] 
BURST MISMATCH: AWBURST=3	 ARBURST=0

UVM_ERROR @ 1105: uvm_test_top.env_inst.sb [CHECKER - W/R_CHANNEL] 
DATA MISMATCH:	 Index=0	 WDATA=0x8ccd35fb	 RDATA=0x0

UVM_INFO @ 1105: uvm_test_top.env_inst.sb [CHECKER - B_CHANNEL] Note: BVALID or BREADY not asserted during response, skipping check
UVM_INFO @ 1105: uvm_test_top.env_inst.sb [CHECKER - R_CHANNEL] Note: RVALID, RREADY, or RLAST not asserted, skipping check
UVM_INFO @ 1105: uvm_test_top.env_inst.sb [CHECKER - AW/AR_CHANNEL] 
PASS: AWADDR=0x0	 ARADDR=0x0	 AWID=0x0	 ARID=0x0

UVM_ERROR @ 1105: uvm_test_top.env_inst.sb [CHECKER - AW/AR_CHANNEL] 
LEN MISMATCH: AWLEN=184	 ARLEN=0

UVM_ERROR @ 1105: uvm_test_top.env_inst.sb [CHECKER - AW/AR_CHANNEL] 
SIZE MISMATCH: AWSIZE=3	 ARSIZE=0

UVM_ERROR @ 1105: uvm_test_top.env_inst.sb [CHECKER - AW/AR_CHANNEL] 
BURST MISMATCH: AWBURST=3	 ARBURST=0

UVM_ERROR @ 1105: uvm_test_top.env_inst.sb [CHECKER - W/R_CHANNEL] 
DATA MISMATCH:	 Index=0	 WDATA=0x8ccd35fb	 RDATA=0x0

UVM_INFO @ 1105: uvm_test_top.env_inst.sb [CHECKER - B_CHANNEL] Note: BVALID or BREADY not asserted during response, skipping check
UVM_INFO @ 1105: uvm_test_top.env_inst.sb [CHECKER - R_CHANNEL] Note: RVALID, RREADY, or RLAST not asserted, skipping check
UVM_INFO @ 1105: uvm_test_top.env_inst.sb [CHECKER - AW/AR_CHANNEL] 
PASS: AWADDR=0x0	 ARADDR=0x0	 AWID=0x0	 ARID=0x0

UVM_ERROR @ 1105: uvm_test_top.env_inst.sb [CHECKER - AW/AR_CHANNEL] 
LEN MISMATCH: AWLEN=184	 ARLEN=0

UVM_ERROR @ 1105: uvm_test_top.env_inst.sb [CHECKER - AW/AR_CHANNEL] 
SIZE MISMATCH: AWSIZE=3	 ARSIZE=0

UVM_ERROR @ 1105: uvm_test_top.env_inst.sb [CHECKER - AW/AR_CHANNEL] 
BURST MISMATCH: AWBURST=3	 ARBURST=0

UVM_ERROR @ 1105: uvm_test_top.env_inst.sb [CHECKER - W/R_CHANNEL] 
DATA MISMATCH:	 Index=0	 WDATA=0x8ccd35fb	 RDATA=0x0

UVM_INFO @ 1105: uvm_test_top.env_inst.sb [CHECKER - B_CHANNEL] Note: BVALID or BREADY not asserted during response, skipping check
UVM_INFO @ 1105: uvm_test_top.env_inst.sb [CHECKER - R_CHANNEL] Note: RVALID, RREADY, or RLAST not asserted, skipping check
UVM_INFO @ 1105: uvm_test_top.env_inst.sb [CHECKER - AW/AR_CHANNEL] 
PASS: AWADDR=0x0	 ARADDR=0x0	 AWID=0x0	 ARID=0x0

UVM_ERROR @ 1105: uvm_test_top.env_inst.sb [CHECKER - AW/AR_CHANNEL] 
LEN MISMATCH: AWLEN=184	 ARLEN=0

UVM_ERROR @ 1105: uvm_test_top.env_inst.sb [CHECKER - AW/AR_CHANNEL] 
SIZE MISMATCH: AWSIZE=3	 ARSIZE=0

UVM_ERROR @ 1105: uvm_test_top.env_inst.sb [CHECKER - AW/AR_CHANNEL] 
BURST MISMATCH: AWBURST=3	 ARBURST=0

UVM_ERROR @ 1105: uvm_test_top.env_inst.sb [CHECKER - W/R_CHANNEL] 
DATA MISMATCH:	 Index=0	 WDATA=0x8ccd35fb	 RDATA=0x0

UVM_INFO @ 1105: uvm_test_top.env_inst.sb [CHECKER - B_CHANNEL] Note: BVALID or BREADY not asserted during response, skipping check
UVM_INFO @ 1105: uvm_test_top.env_inst.sb [CHECKER - R_CHANNEL] Note: RVALID, RREADY, or RLAST not asserted, skipping check
UVM_INFO @ 1105: uvm_test_top.env_inst.sb [CHECKER - AW/AR_CHANNEL] 
PASS: AWADDR=0x0	 ARADDR=0x0	 AWID=0x0	 ARID=0x0

UVM_ERROR @ 1105: uvm_test_top.env_inst.sb [CHECKER - AW/AR_CHANNEL] 
LEN MISMATCH: AWLEN=184	 ARLEN=0

UVM_ERROR @ 1105: uvm_test_top.env_inst.sb [CHECKER - AW/AR_CHANNEL] 
SIZE MISMATCH: AWSIZE=3	 ARSIZE=0

UVM_ERROR @ 1105: uvm_test_top.env_inst.sb [CHECKER - AW/AR_CHANNEL] 
BURST MISMATCH: AWBURST=3	 ARBURST=0

UVM_ERROR @ 1105: uvm_test_top.env_inst.sb [CHECKER - W/R_CHANNEL] 
DATA MISMATCH:	 Index=0	 WDATA=0x8ccd35fb	 RDATA=0x0

UVM_INFO @ 1105: uvm_test_top.env_inst.sb [CHECKER - B_CHANNEL] Note: BVALID or BREADY not asserted during response, skipping check
UVM_INFO @ 1105: uvm_test_top.env_inst.sb [CHECKER - R_CHANNEL] Note: RVALID, RREADY, or RLAST not asserted, skipping check

--- UVM Report catcher Summary ---


Number of demoted UVM_FATAL reports  :    0
Number of demoted UVM_ERROR reports  :    0
Number of demoted UVM_WARNING reports:    0
Number of caught UVM_FATAL reports   :    0
Number of caught UVM_ERROR reports   :    0
Number of caught UVM_WARNING reports :    0

--- UVM Report Summary ---

** Report counts by severity
UVM_INFO :  287
UVM_WARNING :    1
UVM_ERROR :  101
UVM_FATAL :    0
** Report counts by id
[CHECKER - AW/AR_CHANNEL]   102
[CHECKER - B_CHANNEL]    26
[CHECKER - R_CHANNEL]    26
[CHECKER - W/R_CHANNEL]    26
[COV_MODEL]    53
[Driver_class]     2
[ENV_CLASS]     3
[HANDSHAKE_CHECK]     3
[RNTST]     1
[SCOREBOARD]   130
[Sequencer_class]     1
[TEST_DONE]     1
[UVMTOP]     1
[agent_class]     3
[axi_reset_seq]     3
[axi_reset_test]     6
[env_class]     1
[uvm_test_top]     1
Simulation complete via $finish(1) at time 1105 NS + 45
/tools/cadence/INCISIVE152/tools/methodology/UVM/CDNS-1.1d/sv/src/base/uvm_root.svh:457     $finish;
ncsim> exit
ncsim: *W,CGDEFN: Default name "uvm_pkg.uvm_test_top.env_inst.cov_model.axi_write_cg" will be generated for covergroup instance "worklib.test_pkg::axi_cov_model::axi_write_cg@3063_2" as the name of the covergroup instance is not specified explicitly: ../UVME/env/axi_cov_model.sv, 10.
ncsim: *W,CGDEFN: Default name "uvm_pkg.uvm_test_top.env_inst.cov_model.axi_read_cg" will be generated for covergroup instance "worklib.test_pkg::axi_cov_model::axi_read_cg@3062_40" as the name of the covergroup instance is not specified explicitly: ../UVME/env/axi_cov_model.sv, 116.

coverage setup:
  workdir  :  ./cov_work
  dutinst  :  axi_top.dut(axi4_slave_top)
  scope    :  scope
  testname :  test_sv36683

coverage files:
  model(design data) :  ./cov_work/scope/icc_39330fa3_1e5c7f59.ucm (reused)
  data               :  ./cov_work/scope/test_sv36683/icc_39330fa3_1e5c7f59.ucd
TOOL:	irun(64)	15.20-s051: Exiting on Mar 01, 2019 at 19:56:30 IST  (total: 00:00:00)
