irun(64): 15.20-s051: (c) Copyright 1995-2018 Cadence Design Systems, Inc.
TOOL:	irun(64)	15.20-s051: Started on Mar 01, 2019 at 20:17:05 IST
irun
	-access +rwc
	-f compile_list.f
		./../../axi_top_rtl/AXI4_SLAVE_WITH_TOP/1.AXI4_Slave_Write_Address.sv
		./../../axi_top_rtl/AXI4_SLAVE_WITH_TOP/2.AXI4_Slave_Write_Data.sv
		./../../axi_top_rtl/AXI4_SLAVE_WITH_TOP/3.AXI4_Slave_Write_Response.sv
		./../../axi_top_rtl/AXI4_SLAVE_WITH_TOP/4.AXI4_Slave_Read_Address.sv
		./../../axi_top_rtl/AXI4_SLAVE_WITH_TOP/5.AXI4_Slave_Read_Data.sv
		./../../axi_top_rtl/AXI4_SLAVE_WITH_TOP/axi4_Slave_top.sv
		./../UVME/uvm_pkg/test_pkg.sv
		./../UVME/top/axi_top.sv
		./../UVME/top/axi_interface.sv
	-svseed 1779
	+UVM_TESTNAME=axi_multiple_outstanding_address_test
	+define+UVM_REPORT_DISABLE_FILE_LINE
	-coverage all
	-covdut axi4_slave_top
	-covworkdir /cov_work
	-covoverwrite
	-covfile ./cov_files/cov_cmd.cf
	-uvmhome CDNS-1.1d
ncsim: *E,CNDIR: Could not create/open directory /cov_work.
Loading snapshot worklib.axi_top:sv .................... Done
SVSEED set from command line: 1779
ncsim: *W,DSEM2009: This SystemVerilog design is simulated as per IEEE 1800-2009 SystemVerilog simulation semantics. Use -disable_sem2009 option for turning off SV 2009 simulation semantics.
ncsim> source /tools/cadence/INCISIVE152/tools/inca/files/ncsimrc
ncsim> source /tools/cadence/INCISIVE152/tools/methodology/UVM/CDNS-1.1d/additions/sv/files/tcl/uvm_sim.tcl
ncsim> run
----------------------------------------------------------------
CDNS-UVM-1.1d (15.20-s051)
(C) 2007-2013 Mentor Graphics Corporation
(C) 2007-2013 Cadence Design Systems, Inc.
(C) 2006-2013 Synopsys, Inc.
(C) 2011-2013 Cypress Semiconductor Corp.
----------------------------------------------------------------

  ***********       IMPORTANT RELEASE NOTES         ************

  You are using a version of the UVM library that has been compiled
  with `UVM_NO_DEPRECATED undefined.
  See http://www.eda.org/svdb/view.php?id=3313 for more details.

  You are using a version of the UVM library that has been compiled
  with `UVM_OBJECT_MUST_HAVE_CONSTRUCTOR undefined.
  See http://www.eda.org/svdb/view.php?id=3770 for more details.

      (Specify +UVM_NO_RELNOTES to turn off this notice)

UVM_INFO @ 0: uvm_test_top [axi_multiple_outstanding_address_test] Inside Constuctor!
UVM_INFO @ 0: reporter [RNTST] Running test axi_multiple_outstanding_address_test...
UVM_INFO @ 0: uvm_test_top.env_inst [ENV_CLASS] Inside constructor!
UVM_INFO @ 0: uvm_test_top [axi_multiple_outstanding_address_test] Inside Build Phase!
UVM_INFO @ 0: uvm_test_top.env_inst.agent_inst [agent_class] Inside constructor!
ncsim: *W,OBINRGT: (File: ../UVME/env/axi_cov_model.sv, Line : 54): Some of the values in bin range '[8 : $]' of bin 'worklib.test_pkg::axi_cov_model::axi_write_cg.AWSIZE.invalid' are not within the possible values that coverpoint can store. Range will be modified to '[7 : $]'.
ncsim: *W,OBINRGT: (File: ../UVME/env/axi_cov_model.sv, Line : 156): Some of the values in bin range '[8 : $]' of bin 'worklib.test_pkg::axi_cov_model::axi_read_cg.ARSIZE.invalid' are not within the possible values that coverpoint can store. Range will be modified to '[7 : $]'.
UVM_INFO @ 0: uvm_test_top.env_inst [ENV_CLASS] Inside Build Phase!
UVM_INFO @ 0: uvm_test_top.env_inst.agent_inst.driver_inst [Driver_class] Inside Constructor!
UVM_INFO @ 0: uvm_test_top.env_inst.agent_inst.seqr_inst [Sequencer_class] Inside Constructor!
UVM_INFO @ 0: uvm_test_top.env_inst.agent_inst [agent_class] Inside Build Phase!
UVM_INFO @ 0: uvm_test_top.env_inst.agent_inst.driver_inst [Driver_class] Inside Build Phase!
UVM_INFO @ 0: uvm_test_top.env_inst.cov_model [COV_MODEL] Build phase executed
UVM_INFO @ 0: uvm_test_top.env_inst.agent_inst [agent_class] Inside Connect Phase!
UVM_INFO @ 0: uvm_test_top.env_inst [ENV_CLASS] Inside connect Phase! All connections established
UVM_INFO @ 0: reporter [UVMTOP] UVM testbench topology:
-----------------------------------------------------------------------------
Name                       Type                                   Size  Value
-----------------------------------------------------------------------------
uvm_test_top               axi_multiple_outstanding_address_test  -     @2784
  env_inst                 axi_env                                -     @2871
    agent_inst             axi_agent                              -     @2953
      driver_inst          axi_driver                             -     @3075
        rsp_port           uvm_analysis_port                      -     @3175
        seq_item_port      uvm_seq_item_pull_port                 -     @3124
      mon_inst             axi_monitor                            -     @3207
        handshake_port     uvm_analysis_port                      -     @3355
        rd_analysis_port   uvm_analysis_port                      -     @3306
        wr_analysis_port   uvm_analysis_port                      -     @3257
      seqr_inst            axi_seqr                               -     @3335
        rsp_export         uvm_analysis_export                    -     @3443
        seq_item_export    uvm_seq_item_pull_imp                  -     @3991
        arbitration_queue  array                                  0     -    
        lock_queue         array                                  0     -    
        num_last_reqs      integral                               32    'd1  
        num_last_rsps      integral                               32    'd1  
    cov_model              axi_cov_model                          -     @2985
      analysis_imp         uvm_analysis_imp                       -     @3036
    sb                     axi_scoreboard                         -     @2919
      rd_analysis_port     uvm_analysis_port                      -     @4243
      rd_export            uvm_analysis_imp_rd                    -     @4145
      wr_analysis_port     uvm_analysis_port                      -     @4194
      wr_export            uvm_analysis_imp_wr                    -     @4096
-----------------------------------------------------------------------------

UVM_INFO @ 0: uvm_test_top [uvm_test_top] it test increment_burst first line
UVM_INFO @ 0: uvm_test_top [axi_multiple_outstanding_address_test] inside the increment_burst test
UVM_INFO @ 0: uvm_test_top.env_inst.agent_inst.seqr_inst@@multiple_outstanding_address_inst [axi_multiple_outstanding_address_seq] multiple_outstanding_address_seq: inside body
UVM_INFO @ 5: uvm_test_top [axi_multiple_outstanding_address_test] increment_burst scenario 26 is competed
UVM_INFO @ 5: uvm_test_top.env_inst.agent_inst.seqr_inst@@multiple_outstanding_address_inst [axi_multiple_outstanding_address_seq] multiple_outstanding_address_seq: inside body
UVM_INFO @ 15: uvm_test_top.env_inst.cov_model [COV_MODEL] Sampling write coverage for transaction: WSTRB=0xx, AWSIZE=0xx
UVM_INFO @ 15: uvm_test_top.env_inst.sb [SCOREBOARD] 
WRITE Address: AWADDR=0xx	 AWID=0xx	 AWLEN=x	 AWSIZE=x	 AWBURST=x

UVM_INFO @ 15: uvm_test_top.env_inst.sb [SCOREBOARD] 
WRITE Data:	 WDATA=0x'{}	 WSTRB=0xx	 WLAST=x

UVM_INFO @ 15: uvm_test_top.env_inst.sb [SCOREBOARD] 
WRITE Response:	 BID=0x0	 BRESP=0x0

UVM_INFO @ 25: uvm_test_top.env_inst.cov_model [COV_MODEL] Sampling read coverage for transaction: ARSIZE=0x0
UVM_INFO @ 25: uvm_test_top.env_inst.sb [SCOREBOARD] 
READ Address: ARADDR=0x0	 ARID=0x0	 ARLEN=0	 ARSIZE=0	 ARBURST=0

UVM_INFO @ 25: uvm_test_top.env_inst.sb [SCOREBOARD] 
READ Data: RDATA=0x0	 RRESP=0x0	 RLAST=0x0

UVM_INFO @ 65: uvm_test_top.env_inst.cov_model [COV_MODEL] Sampling write coverage for transaction: WSTRB=0x6, AWSIZE=0x5
UVM_INFO @ 65: uvm_test_top.env_inst.sb [SCOREBOARD] 
WRITE Address: AWADDR=0xf553f0f1	 AWID=0x3	 AWLEN=5	 AWSIZE=5	 AWBURST=1

UVM_INFO @ 65: uvm_test_top.env_inst.sb [SCOREBOARD] 
WRITE Data:	 WDATA=0x'{'h8b5770ce, 'h8b5770ce}	 WSTRB=0x6	 WLAST=0

UVM_INFO @ 65: uvm_test_top.env_inst.sb [SCOREBOARD] 
WRITE Response:	 BID=0x3	 BRESP=0x0

UVM_INFO @ 75: uvm_test_top.env_inst.cov_model [COV_MODEL] Sampling read coverage for transaction: ARSIZE=0x0
UVM_INFO @ 75: uvm_test_top.env_inst.sb [SCOREBOARD] 
READ Address: ARADDR=0x0	 ARID=0x0	 ARLEN=0	 ARSIZE=0	 ARBURST=0

UVM_INFO @ 75: uvm_test_top.env_inst.sb [SCOREBOARD] 
READ Data: RDATA=0x0	 RRESP=0x0	 RLAST=0x0

UVM_INFO @ 105: uvm_test_top.env_inst.cov_model [COV_MODEL] Sampling write coverage for transaction: WSTRB=0x6, AWSIZE=0x0
UVM_INFO @ 105: uvm_test_top.env_inst.sb [SCOREBOARD] 
WRITE Address: AWADDR=0x0	 AWID=0x0	 AWLEN=0	 AWSIZE=0	 AWBURST=0

UVM_INFO @ 105: uvm_test_top.env_inst.sb [SCOREBOARD] 
WRITE Data:	 WDATA=0x'{'h4412f610}	 WSTRB=0x6	 WLAST=0

UVM_INFO @ 105: uvm_test_top.env_inst.sb [SCOREBOARD] 
WRITE Response:	 BID=0x3	 BRESP=0x0

UVM_INFO @ 115: uvm_test_top.env_inst.cov_model [COV_MODEL] Sampling read coverage for transaction: ARSIZE=0x0
UVM_INFO @ 115: uvm_test_top.env_inst.sb [SCOREBOARD] 
READ Address: ARADDR=0x0	 ARID=0x0	 ARLEN=0	 ARSIZE=0	 ARBURST=0

UVM_INFO @ 115: uvm_test_top.env_inst.sb [SCOREBOARD] 
READ Data: RDATA=0x0	 RRESP=0x0	 RLAST=0x0

UVM_INFO @ 125: uvm_test_top.env_inst.agent_inst.seqr_inst@@multiple_outstanding_address_inst [SEQ] Running scenario = 27
UVM_INFO @ 125: uvm_test_top.env_inst.agent_inst.seqr_inst@@multiple_outstanding_address_inst [SEQ] Randomized AWADDR = 0x'{'hf553f0f1}
UVM_INFO @ 125: uvm_test_top.env_inst.agent_inst.seqr_inst@@multiple_outstanding_address_inst [i] i value = 0
UVM_INFO @ 125: uvm_test_top.env_inst.agent_inst.seqr_inst@@multiple_outstanding_address_inst [SEQ] AWADDR = 0xf553f0f1
UVM_INFO @ 145: uvm_test_top.env_inst.cov_model [COV_MODEL] Sampling write coverage for transaction: WSTRB=0x0, AWSIZE=0x0
UVM_INFO @ 145: uvm_test_top.env_inst.sb [SCOREBOARD] 
WRITE Address: AWADDR=0x0	 AWID=0x0	 AWLEN=0	 AWSIZE=0	 AWBURST=0

UVM_INFO @ 145: uvm_test_top.env_inst.sb [SCOREBOARD] 
WRITE Data:	 WDATA=0x'{'h0}	 WSTRB=0x0	 WLAST=0

UVM_INFO @ 145: uvm_test_top.env_inst.sb [SCOREBOARD] 
WRITE Response:	 BID=0x0	 BRESP=0x0

UVM_INFO @ 155: uvm_test_top.env_inst.cov_model [COV_MODEL] Sampling read coverage for transaction: ARSIZE=0x0
UVM_INFO @ 155: uvm_test_top.env_inst.sb [SCOREBOARD] 
READ Address: ARADDR=0x0	 ARID=0x0	 ARLEN=0	 ARSIZE=0	 ARBURST=0

UVM_INFO @ 155: uvm_test_top.env_inst.sb [SCOREBOARD] 
READ Data: RDATA=0x0	 RRESP=0x0	 RLAST=0x0

UVM_INFO @ 185: uvm_test_top.env_inst.cov_model [COV_MODEL] Sampling write coverage for transaction: WSTRB=0xd, AWSIZE=0x6
ncsim: *E,EILLVS: (File: ../UVME/env/axi_cov_model.sv, Line: 29):(Time: 185 NS + 1) Sampled value (9) for coverpoint (worklib.test_pkg::axi_cov_model::axi_write_cg@3068_2.AWID) is an illegal value.
UVM_INFO @ 185: uvm_test_top.env_inst.sb [SCOREBOARD] 
WRITE Address: AWADDR=0xb99e7124	 AWID=0x9	 AWLEN=5	 AWSIZE=6	 AWBURST=1

UVM_INFO @ 185: uvm_test_top.env_inst.sb [SCOREBOARD] 
WRITE Data:	 WDATA=0x'{'h36b3ce80}	 WSTRB=0xd	 WLAST=0

UVM_INFO @ 185: uvm_test_top.env_inst.sb [SCOREBOARD] 
WRITE Response:	 BID=0x9	 BRESP=0x0

UVM_INFO @ 195: uvm_test_top.env_inst.cov_model [COV_MODEL] Sampling read coverage for transaction: ARSIZE=0x0
UVM_INFO @ 195: uvm_test_top.env_inst.sb [SCOREBOARD] 
READ Address: ARADDR=0x0	 ARID=0x0	 ARLEN=0	 ARSIZE=0	 ARBURST=0

UVM_INFO @ 195: uvm_test_top.env_inst.sb [SCOREBOARD] 
READ Data: RDATA=0x0	 RRESP=0x0	 RLAST=0x0

UVM_INFO @ 225: uvm_test_top.env_inst.cov_model [COV_MODEL] Sampling write coverage for transaction: WSTRB=0xd, AWSIZE=0x0
UVM_INFO @ 225: uvm_test_top.env_inst.sb [SCOREBOARD] 
WRITE Address: AWADDR=0x0	 AWID=0x0	 AWLEN=0	 AWSIZE=0	 AWBURST=0

UVM_INFO @ 225: uvm_test_top.env_inst.sb [SCOREBOARD] 
WRITE Data:	 WDATA=0x'{'hf8e96ebd}	 WSTRB=0xd	 WLAST=0

UVM_INFO @ 225: uvm_test_top.env_inst.sb [SCOREBOARD] 
WRITE Response:	 BID=0x9	 BRESP=0x0

UVM_INFO @ 235: uvm_test_top.env_inst.cov_model [COV_MODEL] Sampling read coverage for transaction: ARSIZE=0x0
UVM_INFO @ 235: uvm_test_top.env_inst.sb [SCOREBOARD] 
READ Address: ARADDR=0x0	 ARID=0x0	 ARLEN=0	 ARSIZE=0	 ARBURST=0

UVM_INFO @ 235: uvm_test_top.env_inst.sb [SCOREBOARD] 
READ Data: RDATA=0x0	 RRESP=0x0	 RLAST=0x0

UVM_INFO @ 245: uvm_test_top.env_inst.agent_inst.seqr_inst@@multiple_outstanding_address_inst [SEQ] Running scenario = 27
UVM_INFO @ 245: uvm_test_top.env_inst.agent_inst.seqr_inst@@multiple_outstanding_address_inst [SEQ] Randomized AWADDR = 0x'{'hf553f0f1, 'hb99e7124}
UVM_INFO @ 245: uvm_test_top.env_inst.agent_inst.seqr_inst@@multiple_outstanding_address_inst [i] i value = 1
UVM_INFO @ 245: uvm_test_top.env_inst.agent_inst.seqr_inst@@multiple_outstanding_address_inst [SEQ] rand_wr_addr[0] = 0xf553f0f1
UVM_INFO @ 245: uvm_test_top.env_inst.agent_inst.seqr_inst@@multiple_outstanding_address_inst [SEQ] AWADDR = 0xb99e7124
UVM_INFO @ 265: uvm_test_top.env_inst.cov_model [COV_MODEL] Sampling write coverage for transaction: WSTRB=0x0, AWSIZE=0x0
UVM_INFO @ 265: uvm_test_top.env_inst.sb [SCOREBOARD] 
WRITE Address: AWADDR=0x0	 AWID=0x0	 AWLEN=0	 AWSIZE=0	 AWBURST=0

UVM_INFO @ 265: uvm_test_top.env_inst.sb [SCOREBOARD] 
WRITE Data:	 WDATA=0x'{'h0}	 WSTRB=0x0	 WLAST=0

UVM_INFO @ 265: uvm_test_top.env_inst.sb [SCOREBOARD] 
WRITE Response:	 BID=0x0	 BRESP=0x0

UVM_INFO @ 275: uvm_test_top.env_inst.cov_model [COV_MODEL] Sampling read coverage for transaction: ARSIZE=0x0
UVM_INFO @ 275: uvm_test_top.env_inst.sb [SCOREBOARD] 
READ Address: ARADDR=0x0	 ARID=0x0	 ARLEN=0	 ARSIZE=0	 ARBURST=0

UVM_INFO @ 275: uvm_test_top.env_inst.sb [SCOREBOARD] 
READ Data: RDATA=0x0	 RRESP=0x0	 RLAST=0x0

UVM_INFO @ 305: uvm_test_top.env_inst.cov_model [COV_MODEL] Sampling write coverage for transaction: WSTRB=0xa, AWSIZE=0x3
UVM_INFO @ 305: uvm_test_top.env_inst.sb [SCOREBOARD] 
WRITE Address: AWADDR=0x7fd12a51	 AWID=0x1	 AWLEN=5	 AWSIZE=3	 AWBURST=1

UVM_INFO @ 305: uvm_test_top.env_inst.sb [SCOREBOARD] 
WRITE Data:	 WDATA=0x'{'h838e8eba}	 WSTRB=0xa	 WLAST=0

UVM_INFO @ 305: uvm_test_top.env_inst.sb [SCOREBOARD] 
WRITE Response:	 BID=0x1	 BRESP=0x0

UVM_INFO @ 315: uvm_test_top.env_inst.cov_model [COV_MODEL] Sampling read coverage for transaction: ARSIZE=0x0
UVM_INFO @ 315: uvm_test_top.env_inst.sb [SCOREBOARD] 
READ Address: ARADDR=0x0	 ARID=0x0	 ARLEN=0	 ARSIZE=0	 ARBURST=0

UVM_INFO @ 315: uvm_test_top.env_inst.sb [SCOREBOARD] 
READ Data: RDATA=0x0	 RRESP=0x0	 RLAST=0x0

UVM_INFO @ 345: uvm_test_top.env_inst.cov_model [COV_MODEL] Sampling write coverage for transaction: WSTRB=0xa, AWSIZE=0x0
UVM_INFO @ 345: uvm_test_top.env_inst.sb [SCOREBOARD] 
WRITE Address: AWADDR=0x0	 AWID=0x0	 AWLEN=0	 AWSIZE=0	 AWBURST=0

UVM_INFO @ 345: uvm_test_top.env_inst.sb [SCOREBOARD] 
WRITE Data:	 WDATA=0x'{'h53748ed3}	 WSTRB=0xa	 WLAST=0

UVM_INFO @ 345: uvm_test_top.env_inst.sb [SCOREBOARD] 
WRITE Response:	 BID=0x1	 BRESP=0x0

UVM_INFO @ 355: uvm_test_top.env_inst.cov_model [COV_MODEL] Sampling read coverage for transaction: ARSIZE=0x0
UVM_INFO @ 355: uvm_test_top.env_inst.sb [SCOREBOARD] 
READ Address: ARADDR=0x0	 ARID=0x0	 ARLEN=0	 ARSIZE=0	 ARBURST=0

UVM_INFO @ 355: uvm_test_top.env_inst.sb [SCOREBOARD] 
READ Data: RDATA=0x0	 RRESP=0x0	 RLAST=0x0

UVM_INFO @ 365: uvm_test_top.env_inst.agent_inst.seqr_inst@@multiple_outstanding_address_inst [SEQ] Running scenario = 27
UVM_INFO @ 365: uvm_test_top.env_inst.agent_inst.seqr_inst@@multiple_outstanding_address_inst [SEQ] Randomized AWADDR = 0x'{'hf553f0f1, 'hb99e7124, 'h7fd12a51}
UVM_INFO @ 365: uvm_test_top.env_inst.agent_inst.seqr_inst@@multiple_outstanding_address_inst [i] i value = 2
UVM_INFO @ 365: uvm_test_top.env_inst.agent_inst.seqr_inst@@multiple_outstanding_address_inst [SEQ] rand_wr_addr[0] = 0xf553f0f1
UVM_INFO @ 365: uvm_test_top.env_inst.agent_inst.seqr_inst@@multiple_outstanding_address_inst [SEQ] rand_wr_addr[1] = 0xb99e7124
UVM_INFO @ 365: uvm_test_top.env_inst.agent_inst.seqr_inst@@multiple_outstanding_address_inst [SEQ] AWADDR = 0x7fd12a51
UVM_INFO @ 385: uvm_test_top.env_inst.cov_model [COV_MODEL] Sampling write coverage for transaction: WSTRB=0x0, AWSIZE=0x0
UVM_INFO @ 385: uvm_test_top.env_inst.sb [SCOREBOARD] 
WRITE Address: AWADDR=0x0	 AWID=0x0	 AWLEN=0	 AWSIZE=0	 AWBURST=0

UVM_INFO @ 385: uvm_test_top.env_inst.sb [SCOREBOARD] 
WRITE Data:	 WDATA=0x'{'h0}	 WSTRB=0x0	 WLAST=0

UVM_INFO @ 385: uvm_test_top.env_inst.sb [SCOREBOARD] 
WRITE Response:	 BID=0x0	 BRESP=0x0

UVM_INFO @ 395: uvm_test_top.env_inst.cov_model [COV_MODEL] Sampling read coverage for transaction: ARSIZE=0x0
UVM_INFO @ 395: uvm_test_top.env_inst.sb [SCOREBOARD] 
READ Address: ARADDR=0x0	 ARID=0x0	 ARLEN=0	 ARSIZE=0	 ARBURST=0

UVM_INFO @ 395: uvm_test_top.env_inst.sb [SCOREBOARD] 
READ Data: RDATA=0x0	 RRESP=0x0	 RLAST=0x0

UVM_INFO @ 425: uvm_test_top.env_inst.cov_model [COV_MODEL] Sampling write coverage for transaction: WSTRB=0xc, AWSIZE=0x6
ncsim: *E,EILLVS: (File: ../UVME/env/axi_cov_model.sv, Line: 29):(Time: 425 NS + 1) Sampled value (11) for coverpoint (worklib.test_pkg::axi_cov_model::axi_write_cg@3068_2.AWID) is an illegal value.
UVM_INFO @ 425: uvm_test_top.env_inst.sb [SCOREBOARD] 
WRITE Address: AWADDR=0x47ec1c79	 AWID=0xb	 AWLEN=5	 AWSIZE=6	 AWBURST=1

UVM_INFO @ 425: uvm_test_top.env_inst.sb [SCOREBOARD] 
WRITE Data:	 WDATA=0x'{'h71e7b17c}	 WSTRB=0xc	 WLAST=0

UVM_INFO @ 425: uvm_test_top.env_inst.sb [SCOREBOARD] 
WRITE Response:	 BID=0xb	 BRESP=0x0

UVM_INFO @ 435: uvm_test_top.env_inst.cov_model [COV_MODEL] Sampling read coverage for transaction: ARSIZE=0x0
UVM_INFO @ 435: uvm_test_top.env_inst.sb [SCOREBOARD] 
READ Address: ARADDR=0x0	 ARID=0x0	 ARLEN=0	 ARSIZE=0	 ARBURST=0

UVM_INFO @ 435: uvm_test_top.env_inst.sb [SCOREBOARD] 
READ Data: RDATA=0x0	 RRESP=0x0	 RLAST=0x0

UVM_INFO @ 465: uvm_test_top.env_inst.cov_model [COV_MODEL] Sampling write coverage for transaction: WSTRB=0xc, AWSIZE=0x0
UVM_INFO @ 465: uvm_test_top.env_inst.sb [SCOREBOARD] 
WRITE Address: AWADDR=0x0	 AWID=0x0	 AWLEN=0	 AWSIZE=0	 AWBURST=0

UVM_INFO @ 465: uvm_test_top.env_inst.sb [SCOREBOARD] 
WRITE Data:	 WDATA=0x'{'h53b45653}	 WSTRB=0xc	 WLAST=0

UVM_INFO @ 465: uvm_test_top.env_inst.sb [SCOREBOARD] 
WRITE Response:	 BID=0xb	 BRESP=0x0

UVM_INFO @ 475: uvm_test_top.env_inst.cov_model [COV_MODEL] Sampling read coverage for transaction: ARSIZE=0x0
UVM_INFO @ 475: uvm_test_top.env_inst.sb [SCOREBOARD] 
READ Address: ARADDR=0x0	 ARID=0x0	 ARLEN=0	 ARSIZE=0	 ARBURST=0

UVM_INFO @ 475: uvm_test_top.env_inst.sb [SCOREBOARD] 
READ Data: RDATA=0x0	 RRESP=0x0	 RLAST=0x0

UVM_INFO @ 485: uvm_test_top.env_inst.agent_inst.seqr_inst@@multiple_outstanding_address_inst [SEQ] Running scenario = 27
UVM_INFO @ 485: uvm_test_top.env_inst.agent_inst.seqr_inst@@multiple_outstanding_address_inst [SEQ] Randomized AWADDR = 0x'{'hf553f0f1, 'hb99e7124, 'h7fd12a51, 'h47ec1c79}
UVM_INFO @ 485: uvm_test_top.env_inst.agent_inst.seqr_inst@@multiple_outstanding_address_inst [i] i value = 3
UVM_INFO @ 485: uvm_test_top.env_inst.agent_inst.seqr_inst@@multiple_outstanding_address_inst [SEQ] rand_wr_addr[0] = 0xf553f0f1
UVM_INFO @ 485: uvm_test_top.env_inst.agent_inst.seqr_inst@@multiple_outstanding_address_inst [SEQ] rand_wr_addr[1] = 0xb99e7124
UVM_INFO @ 485: uvm_test_top.env_inst.agent_inst.seqr_inst@@multiple_outstanding_address_inst [SEQ] rand_wr_addr[2] = 0x7fd12a51
UVM_INFO @ 485: uvm_test_top.env_inst.agent_inst.seqr_inst@@multiple_outstanding_address_inst [SEQ] AWADDR = 0x47ec1c79
UVM_INFO @ 505: uvm_test_top.env_inst.cov_model [COV_MODEL] Sampling write coverage for transaction: WSTRB=0x0, AWSIZE=0x0
UVM_INFO @ 505: uvm_test_top.env_inst.sb [SCOREBOARD] 
WRITE Address: AWADDR=0x0	 AWID=0x0	 AWLEN=0	 AWSIZE=0	 AWBURST=0

UVM_INFO @ 505: uvm_test_top.env_inst.sb [SCOREBOARD] 
WRITE Data:	 WDATA=0x'{'h0}	 WSTRB=0x0	 WLAST=0

UVM_INFO @ 505: uvm_test_top.env_inst.sb [SCOREBOARD] 
WRITE Response:	 BID=0x0	 BRESP=0x0

UVM_INFO @ 515: uvm_test_top.env_inst.cov_model [COV_MODEL] Sampling read coverage for transaction: ARSIZE=0x0
UVM_INFO @ 515: uvm_test_top.env_inst.sb [SCOREBOARD] 
READ Address: ARADDR=0x0	 ARID=0x0	 ARLEN=0	 ARSIZE=0	 ARBURST=0

UVM_INFO @ 515: uvm_test_top.env_inst.sb [SCOREBOARD] 
READ Data: RDATA=0x0	 RRESP=0x0	 RLAST=0x0

UVM_INFO @ 545: uvm_test_top.env_inst.cov_model [COV_MODEL] Sampling write coverage for transaction: WSTRB=0x4, AWSIZE=0x6
ncsim: *E,EILLVS: (File: ../UVME/env/axi_cov_model.sv, Line: 29):(Time: 545 NS + 1) Sampled value (9) for coverpoint (worklib.test_pkg::axi_cov_model::axi_write_cg@3068_2.AWID) is an illegal value.
UVM_INFO @ 545: uvm_test_top.env_inst.sb [SCOREBOARD] 
WRITE Address: AWADDR=0x11ef479a	 AWID=0x9	 AWLEN=5	 AWSIZE=6	 AWBURST=1

UVM_INFO @ 545: uvm_test_top.env_inst.sb [SCOREBOARD] 
WRITE Data:	 WDATA=0x'{'h1bf36c7}	 WSTRB=0x4	 WLAST=0

UVM_INFO @ 545: uvm_test_top.env_inst.sb [SCOREBOARD] 
WRITE Response:	 BID=0x9	 BRESP=0x0

UVM_INFO @ 555: uvm_test_top.env_inst.cov_model [COV_MODEL] Sampling read coverage for transaction: ARSIZE=0x0
UVM_INFO @ 555: uvm_test_top.env_inst.sb [SCOREBOARD] 
READ Address: ARADDR=0x0	 ARID=0x0	 ARLEN=0	 ARSIZE=0	 ARBURST=0

UVM_INFO @ 555: uvm_test_top.env_inst.sb [SCOREBOARD] 
READ Data: RDATA=0x0	 RRESP=0x0	 RLAST=0x0

UVM_INFO @ 585: uvm_test_top.env_inst.cov_model [COV_MODEL] Sampling write coverage for transaction: WSTRB=0x4, AWSIZE=0x0
UVM_INFO @ 585: uvm_test_top.env_inst.sb [SCOREBOARD] 
WRITE Address: AWADDR=0x0	 AWID=0x0	 AWLEN=0	 AWSIZE=0	 AWBURST=0

UVM_INFO @ 585: uvm_test_top.env_inst.sb [SCOREBOARD] 
WRITE Data:	 WDATA=0x'{'hf9a8c53c}	 WSTRB=0x4	 WLAST=0

UVM_INFO @ 585: uvm_test_top.env_inst.sb [SCOREBOARD] 
WRITE Response:	 BID=0x9	 BRESP=0x0

UVM_INFO @ 595: uvm_test_top.env_inst.cov_model [COV_MODEL] Sampling read coverage for transaction: ARSIZE=0x0
UVM_INFO @ 595: uvm_test_top.env_inst.sb [SCOREBOARD] 
READ Address: ARADDR=0x0	 ARID=0x0	 ARLEN=0	 ARSIZE=0	 ARBURST=0

UVM_INFO @ 595: uvm_test_top.env_inst.sb [SCOREBOARD] 
READ Data: RDATA=0x0	 RRESP=0x0	 RLAST=0x0

UVM_INFO @ 605: uvm_test_top.env_inst.agent_inst.seqr_inst@@multiple_outstanding_address_inst [SEQ] Running scenario = 27
UVM_INFO @ 605: uvm_test_top.env_inst.agent_inst.seqr_inst@@multiple_outstanding_address_inst [SEQ] Randomized AWADDR = 0x'{'hf553f0f1, 'hb99e7124, 'h7fd12a51, 'h47ec1c79, 'h11ef479a}
UVM_INFO @ 605: uvm_test_top.env_inst.agent_inst.seqr_inst@@multiple_outstanding_address_inst [i] i value = 4
UVM_INFO @ 605: uvm_test_top.env_inst.agent_inst.seqr_inst@@multiple_outstanding_address_inst [SEQ] rand_wr_addr[0] = 0xf553f0f1
UVM_INFO @ 605: uvm_test_top.env_inst.agent_inst.seqr_inst@@multiple_outstanding_address_inst [SEQ] rand_wr_addr[1] = 0xb99e7124
UVM_INFO @ 605: uvm_test_top.env_inst.agent_inst.seqr_inst@@multiple_outstanding_address_inst [SEQ] rand_wr_addr[2] = 0x7fd12a51
UVM_INFO @ 605: uvm_test_top.env_inst.agent_inst.seqr_inst@@multiple_outstanding_address_inst [SEQ] rand_wr_addr[3] = 0x47ec1c79
UVM_INFO @ 605: uvm_test_top.env_inst.agent_inst.seqr_inst@@multiple_outstanding_address_inst [SEQ] AWADDR = 0x11ef479a
UVM_INFO @ 625: uvm_test_top.env_inst.cov_model [COV_MODEL] Sampling write coverage for transaction: WSTRB=0x0, AWSIZE=0x0
UVM_INFO @ 625: uvm_test_top.env_inst.sb [SCOREBOARD] 
WRITE Address: AWADDR=0x0	 AWID=0x0	 AWLEN=0	 AWSIZE=0	 AWBURST=0

UVM_INFO @ 625: uvm_test_top.env_inst.sb [SCOREBOARD] 
WRITE Data:	 WDATA=0x'{'h0}	 WSTRB=0x0	 WLAST=0

UVM_INFO @ 625: uvm_test_top.env_inst.sb [SCOREBOARD] 
WRITE Response:	 BID=0x0	 BRESP=0x0

UVM_INFO @ 635: uvm_test_top.env_inst.cov_model [COV_MODEL] Sampling read coverage for transaction: ARSIZE=0x0
UVM_INFO @ 635: uvm_test_top.env_inst.sb [SCOREBOARD] 
READ Address: ARADDR=0x0	 ARID=0x0	 ARLEN=0	 ARSIZE=0	 ARBURST=0

UVM_INFO @ 635: uvm_test_top.env_inst.sb [SCOREBOARD] 
READ Data: RDATA=0x0	 RRESP=0x0	 RLAST=0x0

UVM_INFO @ 665: uvm_test_top.env_inst.cov_model [COV_MODEL] Sampling write coverage for transaction: WSTRB=0x0, AWSIZE=0x2
ncsim: *E,EILLVS: (File: ../UVME/env/axi_cov_model.sv, Line: 29):(Time: 665 NS + 1) Sampled value (8) for coverpoint (worklib.test_pkg::axi_cov_model::axi_write_cg@3068_2.AWID) is an illegal value.
UVM_INFO @ 665: uvm_test_top.env_inst.sb [SCOREBOARD] 
WRITE Address: AWADDR=0xdddaabb7	 AWID=0x8	 AWLEN=5	 AWSIZE=2	 AWBURST=1

UVM_INFO @ 665: uvm_test_top.env_inst.sb [SCOREBOARD] 
WRITE Data:	 WDATA=0x'{'h33151e99}	 WSTRB=0x0	 WLAST=0

UVM_INFO @ 665: uvm_test_top.env_inst.sb [SCOREBOARD] 
WRITE Response:	 BID=0x8	 BRESP=0x0

UVM_INFO @ 675: uvm_test_top.env_inst.cov_model [COV_MODEL] Sampling read coverage for transaction: ARSIZE=0x0
UVM_INFO @ 675: uvm_test_top.env_inst.sb [SCOREBOARD] 
READ Address: ARADDR=0x0	 ARID=0x0	 ARLEN=0	 ARSIZE=0	 ARBURST=0

UVM_INFO @ 675: uvm_test_top.env_inst.sb [SCOREBOARD] 
READ Data: RDATA=0x0	 RRESP=0x0	 RLAST=0x0

UVM_INFO @ 705: uvm_test_top.env_inst.cov_model [COV_MODEL] Sampling write coverage for transaction: WSTRB=0x0, AWSIZE=0x0
UVM_INFO @ 705: uvm_test_top.env_inst.sb [SCOREBOARD] 
WRITE Address: AWADDR=0x0	 AWID=0x0	 AWLEN=0	 AWSIZE=0	 AWBURST=0

UVM_INFO @ 705: uvm_test_top.env_inst.sb [SCOREBOARD] 
WRITE Data:	 WDATA=0x'{'h4551db8e}	 WSTRB=0x0	 WLAST=0

UVM_INFO @ 705: uvm_test_top.env_inst.sb [SCOREBOARD] 
WRITE Response:	 BID=0x8	 BRESP=0x0

UVM_INFO @ 715: uvm_test_top.env_inst.cov_model [COV_MODEL] Sampling read coverage for transaction: ARSIZE=0x0
UVM_INFO @ 715: uvm_test_top.env_inst.sb [SCOREBOARD] 
READ Address: ARADDR=0x0	 ARID=0x0	 ARLEN=0	 ARSIZE=0	 ARBURST=0

UVM_INFO @ 715: uvm_test_top.env_inst.sb [SCOREBOARD] 
READ Data: RDATA=0x0	 RRESP=0x0	 RLAST=0x0

UVM_INFO @ 725: uvm_test_top.env_inst.agent_inst.seqr_inst@@multiple_outstanding_address_inst [SEQ] Running scenario = 27
UVM_INFO @ 725: uvm_test_top.env_inst.agent_inst.seqr_inst@@multiple_outstanding_address_inst [SEQ] Randomized AWADDR = 0x'{'hf553f0f1, 'hb99e7124, 'h7fd12a51, 'h47ec1c79, 'h11ef479a, 'hdddaabb7}
UVM_INFO @ 725: uvm_test_top.env_inst.agent_inst.seqr_inst@@multiple_outstanding_address_inst [i] i value = 5
UVM_INFO @ 725: uvm_test_top.env_inst.agent_inst.seqr_inst@@multiple_outstanding_address_inst [SEQ] rand_wr_addr[0] = 0xf553f0f1
UVM_INFO @ 725: uvm_test_top.env_inst.agent_inst.seqr_inst@@multiple_outstanding_address_inst [SEQ] rand_wr_addr[1] = 0xb99e7124
UVM_INFO @ 725: uvm_test_top.env_inst.agent_inst.seqr_inst@@multiple_outstanding_address_inst [SEQ] rand_wr_addr[2] = 0x7fd12a51
UVM_INFO @ 725: uvm_test_top.env_inst.agent_inst.seqr_inst@@multiple_outstanding_address_inst [SEQ] rand_wr_addr[3] = 0x47ec1c79
UVM_INFO @ 725: uvm_test_top.env_inst.agent_inst.seqr_inst@@multiple_outstanding_address_inst [SEQ] rand_wr_addr[4] = 0x11ef479a
UVM_INFO @ 725: uvm_test_top.env_inst.agent_inst.seqr_inst@@multiple_outstanding_address_inst [SEQ] AWADDR = 0xdddaabb7
UVM_INFO @ 745: uvm_test_top.env_inst.cov_model [COV_MODEL] Sampling write coverage for transaction: WSTRB=0x0, AWSIZE=0x0
UVM_INFO @ 745: uvm_test_top.env_inst.sb [SCOREBOARD] 
WRITE Address: AWADDR=0x0	 AWID=0x0	 AWLEN=0	 AWSIZE=0	 AWBURST=0

UVM_INFO @ 745: uvm_test_top.env_inst.sb [SCOREBOARD] 
WRITE Data:	 WDATA=0x'{'h0}	 WSTRB=0x0	 WLAST=0

UVM_INFO @ 745: uvm_test_top.env_inst.sb [SCOREBOARD] 
WRITE Response:	 BID=0x0	 BRESP=0x0

UVM_INFO @ 755: uvm_test_top.env_inst.cov_model [COV_MODEL] Sampling read coverage for transaction: ARSIZE=0x0
UVM_INFO @ 755: uvm_test_top.env_inst.sb [SCOREBOARD] 
READ Address: ARADDR=0x0	 ARID=0x0	 ARLEN=0	 ARSIZE=0	 ARBURST=0

UVM_INFO @ 755: uvm_test_top.env_inst.sb [SCOREBOARD] 
READ Data: RDATA=0x0	 RRESP=0x0	 RLAST=0x0

UVM_INFO @ 785: uvm_test_top.env_inst.cov_model [COV_MODEL] Sampling write coverage for transaction: WSTRB=0x2, AWSIZE=0x4
ncsim: *E,EILLVS: (File: ../UVME/env/axi_cov_model.sv, Line: 29):(Time: 785 NS + 1) Sampled value (11) for coverpoint (worklib.test_pkg::axi_cov_model::axi_write_cg@3068_2.AWID) is an illegal value.
UVM_INFO @ 785: uvm_test_top.env_inst.sb [SCOREBOARD] 
WRITE Address: AWADDR=0xabae48cd	 AWID=0xb	 AWLEN=5	 AWSIZE=4	 AWBURST=1

UVM_INFO @ 785: uvm_test_top.env_inst.sb [SCOREBOARD] 
WRITE Data:	 WDATA=0x'{'h5e968f3}	 WSTRB=0x2	 WLAST=0

UVM_INFO @ 785: uvm_test_top.env_inst.sb [SCOREBOARD] 
WRITE Response:	 BID=0xb	 BRESP=0x0

UVM_INFO @ 795: uvm_test_top.env_inst.cov_model [COV_MODEL] Sampling read coverage for transaction: ARSIZE=0x0
UVM_INFO @ 795: uvm_test_top.env_inst.sb [SCOREBOARD] 
READ Address: ARADDR=0x0	 ARID=0x0	 ARLEN=0	 ARSIZE=0	 ARBURST=0

UVM_INFO @ 795: uvm_test_top.env_inst.sb [SCOREBOARD] 
READ Data: RDATA=0x0	 RRESP=0x0	 RLAST=0x0

UVM_INFO @ 825: uvm_test_top.env_inst.cov_model [COV_MODEL] Sampling write coverage for transaction: WSTRB=0x2, AWSIZE=0x0
UVM_INFO @ 825: uvm_test_top.env_inst.sb [SCOREBOARD] 
WRITE Address: AWADDR=0x0	 AWID=0x0	 AWLEN=0	 AWSIZE=0	 AWBURST=0

UVM_INFO @ 825: uvm_test_top.env_inst.sb [SCOREBOARD] 
WRITE Data:	 WDATA=0x'{'h36af994a}	 WSTRB=0x2	 WLAST=0

UVM_INFO @ 825: uvm_test_top.env_inst.sb [SCOREBOARD] 
WRITE Response:	 BID=0xb	 BRESP=0x0

UVM_INFO @ 835: uvm_test_top.env_inst.cov_model [COV_MODEL] Sampling read coverage for transaction: ARSIZE=0x0
UVM_INFO @ 835: uvm_test_top.env_inst.sb [SCOREBOARD] 
READ Address: ARADDR=0x0	 ARID=0x0	 ARLEN=0	 ARSIZE=0	 ARBURST=0

UVM_INFO @ 835: uvm_test_top.env_inst.sb [SCOREBOARD] 
READ Data: RDATA=0x0	 RRESP=0x0	 RLAST=0x0

UVM_INFO @ 845: uvm_test_top.env_inst.agent_inst.seqr_inst@@multiple_outstanding_address_inst [SEQ] Running scenario = 27
UVM_INFO @ 845: uvm_test_top.env_inst.agent_inst.seqr_inst@@multiple_outstanding_address_inst [SEQ] Randomized AWADDR = 0x'{'hf553f0f1, 'hb99e7124, 'h7fd12a51, 'h47ec1c79, 'h11ef479a, 'hdddaabb7, 'habae48cd}
UVM_INFO @ 845: uvm_test_top.env_inst.agent_inst.seqr_inst@@multiple_outstanding_address_inst [i] i value = 6
UVM_INFO @ 845: uvm_test_top.env_inst.agent_inst.seqr_inst@@multiple_outstanding_address_inst [SEQ] rand_wr_addr[0] = 0xf553f0f1
UVM_INFO @ 845: uvm_test_top.env_inst.agent_inst.seqr_inst@@multiple_outstanding_address_inst [SEQ] rand_wr_addr[1] = 0xb99e7124
UVM_INFO @ 845: uvm_test_top.env_inst.agent_inst.seqr_inst@@multiple_outstanding_address_inst [SEQ] rand_wr_addr[2] = 0x7fd12a51
UVM_INFO @ 845: uvm_test_top.env_inst.agent_inst.seqr_inst@@multiple_outstanding_address_inst [SEQ] rand_wr_addr[3] = 0x47ec1c79
UVM_INFO @ 845: uvm_test_top.env_inst.agent_inst.seqr_inst@@multiple_outstanding_address_inst [SEQ] rand_wr_addr[4] = 0x11ef479a
UVM_INFO @ 845: uvm_test_top.env_inst.agent_inst.seqr_inst@@multiple_outstanding_address_inst [SEQ] rand_wr_addr[5] = 0xdddaabb7
UVM_INFO @ 845: uvm_test_top.env_inst.agent_inst.seqr_inst@@multiple_outstanding_address_inst [SEQ] AWADDR = 0xabae48cd
UVM_INFO @ 865: uvm_test_top.env_inst.cov_model [COV_MODEL] Sampling write coverage for transaction: WSTRB=0x0, AWSIZE=0x0
UVM_INFO @ 865: uvm_test_top.env_inst.sb [SCOREBOARD] 
WRITE Address: AWADDR=0x0	 AWID=0x0	 AWLEN=0	 AWSIZE=0	 AWBURST=0

UVM_INFO @ 865: uvm_test_top.env_inst.sb [SCOREBOARD] 
WRITE Data:	 WDATA=0x'{'h0}	 WSTRB=0x0	 WLAST=0

UVM_INFO @ 865: uvm_test_top.env_inst.sb [SCOREBOARD] 
WRITE Response:	 BID=0x0	 BRESP=0x0

UVM_INFO @ 875: uvm_test_top.env_inst.cov_model [COV_MODEL] Sampling read coverage for transaction: ARSIZE=0x0
UVM_INFO @ 875: uvm_test_top.env_inst.sb [SCOREBOARD] 
READ Address: ARADDR=0x0	 ARID=0x0	 ARLEN=0	 ARSIZE=0	 ARBURST=0

UVM_INFO @ 875: uvm_test_top.env_inst.sb [SCOREBOARD] 
READ Data: RDATA=0x0	 RRESP=0x0	 RLAST=0x0

UVM_INFO @ 905: uvm_test_top.env_inst.cov_model [COV_MODEL] Sampling write coverage for transaction: WSTRB=0x9, AWSIZE=0x2
ncsim: *E,EILLVS: (File: ../UVME/env/axi_cov_model.sv, Line: 29):(Time: 905 NS + 1) Sampled value (15) for coverpoint (worklib.test_pkg::axi_cov_model::axi_write_cg@3068_2.AWID) is an illegal value.
UVM_INFO @ 905: uvm_test_top.env_inst.sb [SCOREBOARD] 
WRITE Address: AWADDR=0x7b6a1edd	 AWID=0xf	 AWLEN=5	 AWSIZE=2	 AWBURST=1

UVM_INFO @ 905: uvm_test_top.env_inst.sb [SCOREBOARD] 
WRITE Data:	 WDATA=0x'{'h7a3c15d5}	 WSTRB=0x9	 WLAST=0

UVM_INFO @ 905: uvm_test_top.env_inst.sb [SCOREBOARD] 
WRITE Response:	 BID=0xf	 BRESP=0x0

UVM_INFO @ 915: uvm_test_top.env_inst.cov_model [COV_MODEL] Sampling read coverage for transaction: ARSIZE=0x0
UVM_INFO @ 915: uvm_test_top.env_inst.sb [SCOREBOARD] 
READ Address: ARADDR=0x0	 ARID=0x0	 ARLEN=0	 ARSIZE=0	 ARBURST=0

UVM_INFO @ 915: uvm_test_top.env_inst.sb [SCOREBOARD] 
READ Data: RDATA=0x0	 RRESP=0x0	 RLAST=0x0

UVM_INFO @ 945: uvm_test_top.env_inst.cov_model [COV_MODEL] Sampling write coverage for transaction: WSTRB=0x9, AWSIZE=0x0
UVM_INFO @ 945: uvm_test_top.env_inst.sb [SCOREBOARD] 
WRITE Address: AWADDR=0x0	 AWID=0x0	 AWLEN=0	 AWSIZE=0	 AWBURST=0

UVM_INFO @ 945: uvm_test_top.env_inst.sb [SCOREBOARD] 
WRITE Data:	 WDATA=0x'{'hcdc1fe6f}	 WSTRB=0x9	 WLAST=0

UVM_INFO @ 945: uvm_test_top.env_inst.sb [SCOREBOARD] 
WRITE Response:	 BID=0xf	 BRESP=0x0

UVM_INFO @ 955: uvm_test_top.env_inst.cov_model [COV_MODEL] Sampling read coverage for transaction: ARSIZE=0x0
UVM_INFO @ 955: uvm_test_top.env_inst.sb [SCOREBOARD] 
READ Address: ARADDR=0x0	 ARID=0x0	 ARLEN=0	 ARSIZE=0	 ARBURST=0

UVM_INFO @ 955: uvm_test_top.env_inst.sb [SCOREBOARD] 
READ Data: RDATA=0x0	 RRESP=0x0	 RLAST=0x0

UVM_INFO @ 965: uvm_test_top.env_inst.agent_inst.seqr_inst@@multiple_outstanding_address_inst [SEQ] Running scenario = 27
UVM_INFO @ 965: uvm_test_top.env_inst.agent_inst.seqr_inst@@multiple_outstanding_address_inst [SEQ] Randomized AWADDR = 0x'{'hf553f0f1, 'hb99e7124, 'h7fd12a51, 'h47ec1c79, 'h11ef479a, 'hdddaabb7, 'habae48cd, 'h7b6a1edd}
UVM_INFO @ 965: uvm_test_top.env_inst.agent_inst.seqr_inst@@multiple_outstanding_address_inst [i] i value = 7
UVM_INFO @ 965: uvm_test_top.env_inst.agent_inst.seqr_inst@@multiple_outstanding_address_inst [SEQ] rand_wr_addr[0] = 0xf553f0f1
UVM_INFO @ 965: uvm_test_top.env_inst.agent_inst.seqr_inst@@multiple_outstanding_address_inst [SEQ] rand_wr_addr[1] = 0xb99e7124
UVM_INFO @ 965: uvm_test_top.env_inst.agent_inst.seqr_inst@@multiple_outstanding_address_inst [SEQ] rand_wr_addr[2] = 0x7fd12a51
UVM_INFO @ 965: uvm_test_top.env_inst.agent_inst.seqr_inst@@multiple_outstanding_address_inst [SEQ] rand_wr_addr[3] = 0x47ec1c79
UVM_INFO @ 965: uvm_test_top.env_inst.agent_inst.seqr_inst@@multiple_outstanding_address_inst [SEQ] rand_wr_addr[4] = 0x11ef479a
UVM_INFO @ 965: uvm_test_top.env_inst.agent_inst.seqr_inst@@multiple_outstanding_address_inst [SEQ] rand_wr_addr[5] = 0xdddaabb7
UVM_INFO @ 965: uvm_test_top.env_inst.agent_inst.seqr_inst@@multiple_outstanding_address_inst [SEQ] rand_wr_addr[6] = 0xabae48cd
UVM_INFO @ 965: uvm_test_top.env_inst.agent_inst.seqr_inst@@multiple_outstanding_address_inst [SEQ] AWADDR = 0x7b6a1edd
UVM_INFO @ 985: uvm_test_top.env_inst.cov_model [COV_MODEL] Sampling write coverage for transaction: WSTRB=0x0, AWSIZE=0x0
UVM_INFO @ 985: uvm_test_top.env_inst.sb [SCOREBOARD] 
WRITE Address: AWADDR=0x0	 AWID=0x0	 AWLEN=0	 AWSIZE=0	 AWBURST=0

UVM_INFO @ 985: uvm_test_top.env_inst.sb [SCOREBOARD] 
WRITE Data:	 WDATA=0x'{'h0}	 WSTRB=0x0	 WLAST=0

UVM_INFO @ 985: uvm_test_top.env_inst.sb [SCOREBOARD] 
WRITE Response:	 BID=0x0	 BRESP=0x0

UVM_INFO @ 995: uvm_test_top.env_inst.cov_model [COV_MODEL] Sampling read coverage for transaction: ARSIZE=0x0
UVM_INFO @ 995: uvm_test_top.env_inst.sb [SCOREBOARD] 
READ Address: ARADDR=0x0	 ARID=0x0	 ARLEN=0	 ARSIZE=0	 ARBURST=0

UVM_INFO @ 995: uvm_test_top.env_inst.sb [SCOREBOARD] 
READ Data: RDATA=0x0	 RRESP=0x0	 RLAST=0x0

UVM_INFO @ 1025: uvm_test_top.env_inst.cov_model [COV_MODEL] Sampling write coverage for transaction: WSTRB=0x5, AWSIZE=0x5
ncsim: *E,EILLVS: (File: ../UVME/env/axi_cov_model.sv, Line: 29):(Time: 1025 NS + 1) Sampled value (7) for coverpoint (worklib.test_pkg::axi_cov_model::axi_write_cg@3068_2.AWID) is an illegal value.
UVM_INFO @ 1025: uvm_test_top.env_inst.sb [SCOREBOARD] 
WRITE Address: AWADDR=0x4d0e2de8	 AWID=0x7	 AWLEN=5	 AWSIZE=5	 AWBURST=1

UVM_INFO @ 1025: uvm_test_top.env_inst.sb [SCOREBOARD] 
WRITE Data:	 WDATA=0x'{'h900d253f}	 WSTRB=0x5	 WLAST=0

UVM_INFO @ 1025: uvm_test_top.env_inst.sb [SCOREBOARD] 
WRITE Response:	 BID=0x7	 BRESP=0x0

UVM_INFO @ 1035: uvm_test_top.env_inst.cov_model [COV_MODEL] Sampling read coverage for transaction: ARSIZE=0x0
UVM_INFO @ 1035: uvm_test_top.env_inst.sb [SCOREBOARD] 
READ Address: ARADDR=0x0	 ARID=0x0	 ARLEN=0	 ARSIZE=0	 ARBURST=0

UVM_INFO @ 1035: uvm_test_top.env_inst.sb [SCOREBOARD] 
READ Data: RDATA=0x0	 RRESP=0x0	 RLAST=0x0

UVM_INFO @ 1065: uvm_test_top.env_inst.cov_model [COV_MODEL] Sampling write coverage for transaction: WSTRB=0x5, AWSIZE=0x0
UVM_INFO @ 1065: uvm_test_top.env_inst.sb [SCOREBOARD] 
WRITE Address: AWADDR=0x0	 AWID=0x0	 AWLEN=0	 AWSIZE=0	 AWBURST=0

UVM_INFO @ 1065: uvm_test_top.env_inst.sb [SCOREBOARD] 
WRITE Data:	 WDATA=0x'{'ha890afe}	 WSTRB=0x5	 WLAST=0

UVM_INFO @ 1065: uvm_test_top.env_inst.sb [SCOREBOARD] 
WRITE Response:	 BID=0x7	 BRESP=0x0

UVM_INFO @ 1075: uvm_test_top.env_inst.cov_model [COV_MODEL] Sampling read coverage for transaction: ARSIZE=0x0
UVM_INFO @ 1075: uvm_test_top.env_inst.sb [SCOREBOARD] 
READ Address: ARADDR=0x0	 ARID=0x0	 ARLEN=0	 ARSIZE=0	 ARBURST=0

UVM_INFO @ 1075: uvm_test_top.env_inst.sb [SCOREBOARD] 
READ Data: RDATA=0x0	 RRESP=0x0	 RLAST=0x0

UVM_INFO @ 1085: uvm_test_top.env_inst.agent_inst.seqr_inst@@multiple_outstanding_address_inst [SEQ] Running scenario = 27
UVM_INFO @ 1085: uvm_test_top.env_inst.agent_inst.seqr_inst@@multiple_outstanding_address_inst [SEQ] Randomized AWADDR = 0x'{'hf553f0f1, 'hb99e7124, 'h7fd12a51, 'h47ec1c79, 'h11ef479a, 'hdddaabb7, 'habae48cd, 'h7b6a1edd, 'h4d0e2de8}
UVM_INFO @ 1085: uvm_test_top.env_inst.agent_inst.seqr_inst@@multiple_outstanding_address_inst [i] i value = 8
UVM_INFO @ 1085: uvm_test_top.env_inst.agent_inst.seqr_inst@@multiple_outstanding_address_inst [SEQ] rand_wr_addr[0] = 0xf553f0f1
UVM_INFO @ 1085: uvm_test_top.env_inst.agent_inst.seqr_inst@@multiple_outstanding_address_inst [SEQ] rand_wr_addr[1] = 0xb99e7124
UVM_INFO @ 1085: uvm_test_top.env_inst.agent_inst.seqr_inst@@multiple_outstanding_address_inst [SEQ] rand_wr_addr[2] = 0x7fd12a51
UVM_INFO @ 1085: uvm_test_top.env_inst.agent_inst.seqr_inst@@multiple_outstanding_address_inst [SEQ] rand_wr_addr[3] = 0x47ec1c79
UVM_INFO @ 1085: uvm_test_top.env_inst.agent_inst.seqr_inst@@multiple_outstanding_address_inst [SEQ] rand_wr_addr[4] = 0x11ef479a
UVM_INFO @ 1085: uvm_test_top.env_inst.agent_inst.seqr_inst@@multiple_outstanding_address_inst [SEQ] rand_wr_addr[5] = 0xdddaabb7
UVM_INFO @ 1085: uvm_test_top.env_inst.agent_inst.seqr_inst@@multiple_outstanding_address_inst [SEQ] rand_wr_addr[6] = 0xabae48cd
UVM_INFO @ 1085: uvm_test_top.env_inst.agent_inst.seqr_inst@@multiple_outstanding_address_inst [SEQ] rand_wr_addr[7] = 0x7b6a1edd
UVM_INFO @ 1085: uvm_test_top.env_inst.agent_inst.seqr_inst@@multiple_outstanding_address_inst [SEQ] AWADDR = 0x4d0e2de8
UVM_INFO @ 1105: uvm_test_top.env_inst.cov_model [COV_MODEL] Sampling write coverage for transaction: WSTRB=0x0, AWSIZE=0x0
UVM_INFO @ 1105: uvm_test_top.env_inst.sb [SCOREBOARD] 
WRITE Address: AWADDR=0x0	 AWID=0x0	 AWLEN=0	 AWSIZE=0	 AWBURST=0

UVM_INFO @ 1105: uvm_test_top.env_inst.sb [SCOREBOARD] 
WRITE Data:	 WDATA=0x'{'h0}	 WSTRB=0x0	 WLAST=0

UVM_INFO @ 1105: uvm_test_top.env_inst.sb [SCOREBOARD] 
WRITE Response:	 BID=0x0	 BRESP=0x0

UVM_INFO @ 1115: uvm_test_top.env_inst.cov_model [COV_MODEL] Sampling read coverage for transaction: ARSIZE=0x0
UVM_INFO @ 1115: uvm_test_top.env_inst.sb [SCOREBOARD] 
READ Address: ARADDR=0x0	 ARID=0x0	 ARLEN=0	 ARSIZE=0	 ARBURST=0

UVM_INFO @ 1115: uvm_test_top.env_inst.sb [SCOREBOARD] 
READ Data: RDATA=0x0	 RRESP=0x0	 RLAST=0x0

UVM_INFO @ 1145: uvm_test_top.env_inst.cov_model [COV_MODEL] Sampling write coverage for transaction: WSTRB=0x6, AWSIZE=0x5
UVM_INFO @ 1145: uvm_test_top.env_inst.sb [SCOREBOARD] 
WRITE Address: AWADDR=0x209a75ed	 AWID=0x0	 AWLEN=5	 AWSIZE=5	 AWBURST=1

UVM_INFO @ 1145: uvm_test_top.env_inst.sb [SCOREBOARD] 
WRITE Data:	 WDATA=0x'{'h475c9732}	 WSTRB=0x6	 WLAST=0

UVM_INFO @ 1145: uvm_test_top.env_inst.sb [SCOREBOARD] 
WRITE Response:	 BID=0x0	 BRESP=0x0

UVM_INFO @ 1155: uvm_test_top.env_inst.cov_model [COV_MODEL] Sampling read coverage for transaction: ARSIZE=0x0
UVM_INFO @ 1155: uvm_test_top.env_inst.sb [SCOREBOARD] 
READ Address: ARADDR=0x0	 ARID=0x0	 ARLEN=0	 ARSIZE=0	 ARBURST=0

UVM_INFO @ 1155: uvm_test_top.env_inst.sb [SCOREBOARD] 
READ Data: RDATA=0x0	 RRESP=0x0	 RLAST=0x0

UVM_INFO @ 1185: uvm_test_top.env_inst.cov_model [COV_MODEL] Sampling write coverage for transaction: WSTRB=0x6, AWSIZE=0x0
UVM_INFO @ 1185: uvm_test_top.env_inst.sb [SCOREBOARD] 
WRITE Address: AWADDR=0x0	 AWID=0x0	 AWLEN=0	 AWSIZE=0	 AWBURST=0

UVM_INFO @ 1185: uvm_test_top.env_inst.sb [SCOREBOARD] 
WRITE Data:	 WDATA=0x'{'hed04bef6}	 WSTRB=0x6	 WLAST=0

UVM_INFO @ 1185: uvm_test_top.env_inst.sb [SCOREBOARD] 
WRITE Response:	 BID=0x0	 BRESP=0x0

UVM_INFO @ 1195: uvm_test_top.env_inst.cov_model [COV_MODEL] Sampling read coverage for transaction: ARSIZE=0x0
UVM_INFO @ 1195: uvm_test_top.env_inst.sb [SCOREBOARD] 
READ Address: ARADDR=0x0	 ARID=0x0	 ARLEN=0	 ARSIZE=0	 ARBURST=0

UVM_INFO @ 1195: uvm_test_top.env_inst.sb [SCOREBOARD] 
READ Data: RDATA=0x0	 RRESP=0x0	 RLAST=0x0

UVM_INFO @ 1205: uvm_test_top.env_inst.agent_inst.seqr_inst@@multiple_outstanding_address_inst [SEQ] Running scenario = 27
UVM_INFO @ 1205: uvm_test_top.env_inst.agent_inst.seqr_inst@@multiple_outstanding_address_inst [SEQ] Randomized AWADDR = 0x'{'hf553f0f1, 'hb99e7124, 'h7fd12a51, 'h47ec1c79, 'h11ef479a, 'hdddaabb7, 'habae48cd, 'h7b6a1edd, 'h4d0e2de8, 'h209a75ed}
UVM_INFO @ 1205: uvm_test_top.env_inst.agent_inst.seqr_inst@@multiple_outstanding_address_inst [i] i value = 9
UVM_INFO @ 1205: uvm_test_top.env_inst.agent_inst.seqr_inst@@multiple_outstanding_address_inst [SEQ] rand_wr_addr[0] = 0xf553f0f1
UVM_INFO @ 1205: uvm_test_top.env_inst.agent_inst.seqr_inst@@multiple_outstanding_address_inst [SEQ] rand_wr_addr[1] = 0xb99e7124
UVM_INFO @ 1205: uvm_test_top.env_inst.agent_inst.seqr_inst@@multiple_outstanding_address_inst [SEQ] rand_wr_addr[2] = 0x7fd12a51
UVM_INFO @ 1205: uvm_test_top.env_inst.agent_inst.seqr_inst@@multiple_outstanding_address_inst [SEQ] rand_wr_addr[3] = 0x47ec1c79
UVM_INFO @ 1205: uvm_test_top.env_inst.agent_inst.seqr_inst@@multiple_outstanding_address_inst [SEQ] rand_wr_addr[4] = 0x11ef479a
UVM_INFO @ 1205: uvm_test_top.env_inst.agent_inst.seqr_inst@@multiple_outstanding_address_inst [SEQ] rand_wr_addr[5] = 0xdddaabb7
UVM_INFO @ 1205: uvm_test_top.env_inst.agent_inst.seqr_inst@@multiple_outstanding_address_inst [SEQ] rand_wr_addr[6] = 0xabae48cd
UVM_INFO @ 1205: uvm_test_top.env_inst.agent_inst.seqr_inst@@multiple_outstanding_address_inst [SEQ] rand_wr_addr[7] = 0x7b6a1edd
UVM_INFO @ 1205: uvm_test_top.env_inst.agent_inst.seqr_inst@@multiple_outstanding_address_inst [SEQ] rand_wr_addr[8] = 0x4d0e2de8
UVM_INFO @ 1205: uvm_test_top.env_inst.agent_inst.seqr_inst@@multiple_outstanding_address_inst [SEQ] AWADDR = 0x209a75ed
UVM_INFO @ 1225: uvm_test_top.env_inst.cov_model [COV_MODEL] Sampling write coverage for transaction: WSTRB=0x0, AWSIZE=0x0
UVM_INFO @ 1225: uvm_test_top.env_inst.sb [SCOREBOARD] 
WRITE Address: AWADDR=0x0	 AWID=0x0	 AWLEN=0	 AWSIZE=0	 AWBURST=0

UVM_INFO @ 1225: uvm_test_top.env_inst.sb [SCOREBOARD] 
WRITE Data:	 WDATA=0x'{'h0}	 WSTRB=0x0	 WLAST=0

UVM_INFO @ 1225: uvm_test_top.env_inst.sb [SCOREBOARD] 
WRITE Response:	 BID=0x0	 BRESP=0x0

UVM_INFO @ 1235: uvm_test_top.env_inst.cov_model [COV_MODEL] Sampling read coverage for transaction: ARSIZE=0x0
UVM_INFO @ 1235: uvm_test_top.env_inst.sb [SCOREBOARD] 
READ Address: ARADDR=0x0	 ARID=0x0	 ARLEN=0	 ARSIZE=0	 ARBURST=0

UVM_INFO @ 1235: uvm_test_top.env_inst.sb [SCOREBOARD] 
READ Data: RDATA=0x0	 RRESP=0x0	 RLAST=0x0

UVM_INFO @ 1265: uvm_test_top.env_inst.cov_model [COV_MODEL] Sampling write coverage for transaction: WSTRB=0xd, AWSIZE=0x2
ncsim: *E,EILLVS: (File: ../UVME/env/axi_cov_model.sv, Line: 29):(Time: 1265 NS + 1) Sampled value (13) for coverpoint (worklib.test_pkg::axi_cov_model::axi_write_cg@3068_2.AWID) is an illegal value.
UVM_INFO @ 1265: uvm_test_top.env_inst.sb [SCOREBOARD] 
WRITE Address: AWADDR=0xf60ef6ed	 AWID=0xd	 AWLEN=5	 AWSIZE=2	 AWBURST=1

UVM_INFO @ 1265: uvm_test_top.env_inst.sb [SCOREBOARD] 
WRITE Data:	 WDATA=0x'{'ha02a6bac}	 WSTRB=0xd	 WLAST=0

UVM_INFO @ 1265: uvm_test_top.env_inst.sb [SCOREBOARD] 
WRITE Response:	 BID=0xd	 BRESP=0x0

UVM_INFO @ 1275: uvm_test_top.env_inst.cov_model [COV_MODEL] Sampling read coverage for transaction: ARSIZE=0x0
UVM_INFO @ 1275: uvm_test_top.env_inst.sb [SCOREBOARD] 
READ Address: ARADDR=0x0	 ARID=0x0	 ARLEN=0	 ARSIZE=0	 ARBURST=0

UVM_INFO @ 1275: uvm_test_top.env_inst.sb [SCOREBOARD] 
READ Data: RDATA=0x0	 RRESP=0x0	 RLAST=0x0

UVM_INFO @ 1305: uvm_test_top.env_inst.cov_model [COV_MODEL] Sampling write coverage for transaction: WSTRB=0xd, AWSIZE=0x0
UVM_INFO @ 1305: uvm_test_top.env_inst.sb [SCOREBOARD] 
WRITE Address: AWADDR=0x0	 AWID=0x0	 AWLEN=0	 AWSIZE=0	 AWBURST=0

UVM_INFO @ 1305: uvm_test_top.env_inst.sb [SCOREBOARD] 
WRITE Data:	 WDATA=0x'{'h75351a57}	 WSTRB=0xd	 WLAST=0

UVM_INFO @ 1305: uvm_test_top.env_inst.sb [SCOREBOARD] 
WRITE Response:	 BID=0xd	 BRESP=0x0

UVM_INFO @ 1315: uvm_test_top.env_inst.cov_model [COV_MODEL] Sampling read coverage for transaction: ARSIZE=0x0
UVM_INFO @ 1315: uvm_test_top.env_inst.sb [SCOREBOARD] 
READ Address: ARADDR=0x0	 ARID=0x0	 ARLEN=0	 ARSIZE=0	 ARBURST=0

UVM_INFO @ 1315: uvm_test_top.env_inst.sb [SCOREBOARD] 
READ Data: RDATA=0x0	 RRESP=0x0	 RLAST=0x0

UVM_INFO @ 1325: uvm_test_top.env_inst.agent_inst.seqr_inst@@multiple_outstanding_address_inst [SEQ] Running scenario = 27
UVM_INFO @ 1325: uvm_test_top.env_inst.agent_inst.seqr_inst@@multiple_outstanding_address_inst [SEQ] Randomized AWADDR = 0x'{'hf553f0f1, 'hb99e7124, 'h7fd12a51, 'h47ec1c79, 'h11ef479a, 'hdddaabb7, 'habae48cd, 'h7b6a1edd, 'h4d0e2de8, 'h209a75ed, 'hf60ef6ed}
UVM_INFO @ 1325: uvm_test_top.env_inst.agent_inst.seqr_inst@@multiple_outstanding_address_inst [i] i value = 10
UVM_INFO @ 1325: uvm_test_top.env_inst.agent_inst.seqr_inst@@multiple_outstanding_address_inst [SEQ] rand_wr_addr[0] = 0xf553f0f1
UVM_INFO @ 1325: uvm_test_top.env_inst.agent_inst.seqr_inst@@multiple_outstanding_address_inst [SEQ] rand_wr_addr[1] = 0xb99e7124
UVM_INFO @ 1325: uvm_test_top.env_inst.agent_inst.seqr_inst@@multiple_outstanding_address_inst [SEQ] rand_wr_addr[2] = 0x7fd12a51
UVM_INFO @ 1325: uvm_test_top.env_inst.agent_inst.seqr_inst@@multiple_outstanding_address_inst [SEQ] rand_wr_addr[3] = 0x47ec1c79
UVM_INFO @ 1325: uvm_test_top.env_inst.agent_inst.seqr_inst@@multiple_outstanding_address_inst [SEQ] rand_wr_addr[4] = 0x11ef479a
UVM_INFO @ 1325: uvm_test_top.env_inst.agent_inst.seqr_inst@@multiple_outstanding_address_inst [SEQ] rand_wr_addr[5] = 0xdddaabb7
UVM_INFO @ 1325: uvm_test_top.env_inst.agent_inst.seqr_inst@@multiple_outstanding_address_inst [SEQ] rand_wr_addr[6] = 0xabae48cd
UVM_INFO @ 1325: uvm_test_top.env_inst.agent_inst.seqr_inst@@multiple_outstanding_address_inst [SEQ] rand_wr_addr[7] = 0x7b6a1edd
UVM_INFO @ 1325: uvm_test_top.env_inst.agent_inst.seqr_inst@@multiple_outstanding_address_inst [SEQ] rand_wr_addr[8] = 0x4d0e2de8
UVM_INFO @ 1325: uvm_test_top.env_inst.agent_inst.seqr_inst@@multiple_outstanding_address_inst [SEQ] rand_wr_addr[9] = 0x209a75ed
UVM_INFO @ 1325: uvm_test_top.env_inst.agent_inst.seqr_inst@@multiple_outstanding_address_inst [SEQ] AWADDR = 0xf60ef6ed
UVM_INFO @ 1345: uvm_test_top.env_inst.cov_model [COV_MODEL] Sampling write coverage for transaction: WSTRB=0x0, AWSIZE=0x0
UVM_INFO @ 1345: uvm_test_top.env_inst.sb [SCOREBOARD] 
WRITE Address: AWADDR=0x0	 AWID=0x0	 AWLEN=0	 AWSIZE=0	 AWBURST=0

UVM_INFO @ 1345: uvm_test_top.env_inst.sb [SCOREBOARD] 
WRITE Data:	 WDATA=0x'{'h0}	 WSTRB=0x0	 WLAST=0

UVM_INFO @ 1345: uvm_test_top.env_inst.sb [SCOREBOARD] 
WRITE Response:	 BID=0x0	 BRESP=0x0

UVM_INFO @ 1355: uvm_test_top.env_inst.cov_model [COV_MODEL] Sampling read coverage for transaction: ARSIZE=0x0
UVM_INFO @ 1355: uvm_test_top.env_inst.sb [SCOREBOARD] 
READ Address: ARADDR=0x0	 ARID=0x0	 ARLEN=0	 ARSIZE=0	 ARBURST=0

UVM_INFO @ 1355: uvm_test_top.env_inst.sb [SCOREBOARD] 
READ Data: RDATA=0x0	 RRESP=0x0	 RLAST=0x0

UVM_INFO @ 1385: uvm_test_top.env_inst.cov_model [COV_MODEL] Sampling write coverage for transaction: WSTRB=0x8, AWSIZE=0x4
ncsim: *E,EILLVS: (File: ../UVME/env/axi_cov_model.sv, Line: 29):(Time: 1385 NS + 1) Sampled value (12) for coverpoint (worklib.test_pkg::axi_cov_model::axi_write_cg@3068_2.AWID) is an illegal value.
UVM_INFO @ 1385: uvm_test_top.env_inst.sb [SCOREBOARD] 
WRITE Address: AWADDR=0xcd6bb0e6	 AWID=0xc	 AWLEN=5	 AWSIZE=4	 AWBURST=1

UVM_INFO @ 1385: uvm_test_top.env_inst.sb [SCOREBOARD] 
WRITE Data:	 WDATA=0x'{'h9a76a2ae}	 WSTRB=0x8	 WLAST=0

UVM_INFO @ 1385: uvm_test_top.env_inst.sb [SCOREBOARD] 
WRITE Response:	 BID=0xc	 BRESP=0x0

UVM_INFO @ 1395: uvm_test_top.env_inst.cov_model [COV_MODEL] Sampling read coverage for transaction: ARSIZE=0x0
UVM_INFO @ 1395: uvm_test_top.env_inst.sb [SCOREBOARD] 
READ Address: ARADDR=0x0	 ARID=0x0	 ARLEN=0	 ARSIZE=0	 ARBURST=0

UVM_INFO @ 1395: uvm_test_top.env_inst.sb [SCOREBOARD] 
READ Data: RDATA=0x0	 RRESP=0x0	 RLAST=0x0

UVM_INFO @ 1425: uvm_test_top.env_inst.cov_model [COV_MODEL] Sampling write coverage for transaction: WSTRB=0x8, AWSIZE=0x0
UVM_INFO @ 1425: uvm_test_top.env_inst.sb [SCOREBOARD] 
WRITE Address: AWADDR=0x0	 AWID=0x0	 AWLEN=0	 AWSIZE=0	 AWBURST=0

UVM_INFO @ 1425: uvm_test_top.env_inst.sb [SCOREBOARD] 
WRITE Data:	 WDATA=0x'{'ha31a1d21}	 WSTRB=0x8	 WLAST=0

UVM_INFO @ 1425: uvm_test_top.env_inst.sb [SCOREBOARD] 
WRITE Response:	 BID=0xc	 BRESP=0x0

UVM_INFO @ 1435: uvm_test_top.env_inst.cov_model [COV_MODEL] Sampling read coverage for transaction: ARSIZE=0x0
UVM_INFO @ 1435: uvm_test_top.env_inst.sb [SCOREBOARD] 
READ Address: ARADDR=0x0	 ARID=0x0	 ARLEN=0	 ARSIZE=0	 ARBURST=0

UVM_INFO @ 1435: uvm_test_top.env_inst.sb [SCOREBOARD] 
READ Data: RDATA=0x0	 RRESP=0x0	 RLAST=0x0

UVM_INFO @ 1445: uvm_test_top.env_inst.agent_inst.seqr_inst@@multiple_outstanding_address_inst [SEQ] Running scenario = 27
UVM_INFO @ 1445: uvm_test_top.env_inst.agent_inst.seqr_inst@@multiple_outstanding_address_inst [SEQ] Randomized AWADDR = 0x'{'hf553f0f1, 'hb99e7124, 'h7fd12a51, 'h47ec1c79, 'h11ef479a, 'hdddaabb7, 'habae48cd, 'h7b6a1edd, 'h4d0e2de8, 'h209a75ed, 'hf60ef6ed, 'hcd6bb0e6}
UVM_INFO @ 1445: uvm_test_top.env_inst.agent_inst.seqr_inst@@multiple_outstanding_address_inst [i] i value = 11
UVM_INFO @ 1445: uvm_test_top.env_inst.agent_inst.seqr_inst@@multiple_outstanding_address_inst [SEQ] rand_wr_addr[0] = 0xf553f0f1
UVM_INFO @ 1445: uvm_test_top.env_inst.agent_inst.seqr_inst@@multiple_outstanding_address_inst [SEQ] rand_wr_addr[1] = 0xb99e7124
UVM_INFO @ 1445: uvm_test_top.env_inst.agent_inst.seqr_inst@@multiple_outstanding_address_inst [SEQ] rand_wr_addr[2] = 0x7fd12a51
UVM_INFO @ 1445: uvm_test_top.env_inst.agent_inst.seqr_inst@@multiple_outstanding_address_inst [SEQ] rand_wr_addr[3] = 0x47ec1c79
UVM_INFO @ 1445: uvm_test_top.env_inst.agent_inst.seqr_inst@@multiple_outstanding_address_inst [SEQ] rand_wr_addr[4] = 0x11ef479a
UVM_INFO @ 1445: uvm_test_top.env_inst.agent_inst.seqr_inst@@multiple_outstanding_address_inst [SEQ] rand_wr_addr[5] = 0xdddaabb7
UVM_INFO @ 1445: uvm_test_top.env_inst.agent_inst.seqr_inst@@multiple_outstanding_address_inst [SEQ] rand_wr_addr[6] = 0xabae48cd
UVM_INFO @ 1445: uvm_test_top.env_inst.agent_inst.seqr_inst@@multiple_outstanding_address_inst [SEQ] rand_wr_addr[7] = 0x7b6a1edd
UVM_INFO @ 1445: uvm_test_top.env_inst.agent_inst.seqr_inst@@multiple_outstanding_address_inst [SEQ] rand_wr_addr[8] = 0x4d0e2de8
UVM_INFO @ 1445: uvm_test_top.env_inst.agent_inst.seqr_inst@@multiple_outstanding_address_inst [SEQ] rand_wr_addr[9] = 0x209a75ed
UVM_INFO @ 1445: uvm_test_top.env_inst.agent_inst.seqr_inst@@multiple_outstanding_address_inst [SEQ] rand_wr_addr[10] = 0xf60ef6ed
UVM_INFO @ 1445: uvm_test_top.env_inst.agent_inst.seqr_inst@@multiple_outstanding_address_inst [SEQ] AWADDR = 0xcd6bb0e6
UVM_INFO @ 1465: uvm_test_top.env_inst.cov_model [COV_MODEL] Sampling write coverage for transaction: WSTRB=0x0, AWSIZE=0x0
UVM_INFO @ 1465: uvm_test_top.env_inst.sb [SCOREBOARD] 
WRITE Address: AWADDR=0x0	 AWID=0x0	 AWLEN=0	 AWSIZE=0	 AWBURST=0

UVM_INFO @ 1465: uvm_test_top.env_inst.sb [SCOREBOARD] 
WRITE Data:	 WDATA=0x'{'h0}	 WSTRB=0x0	 WLAST=0

UVM_INFO @ 1465: uvm_test_top.env_inst.sb [SCOREBOARD] 
WRITE Response:	 BID=0x0	 BRESP=0x0

UVM_INFO @ 1475: uvm_test_top.env_inst.cov_model [COV_MODEL] Sampling read coverage for transaction: ARSIZE=0x0
UVM_INFO @ 1475: uvm_test_top.env_inst.sb [SCOREBOARD] 
READ Address: ARADDR=0x0	 ARID=0x0	 ARLEN=0	 ARSIZE=0	 ARBURST=0

UVM_INFO @ 1475: uvm_test_top.env_inst.sb [SCOREBOARD] 
READ Data: RDATA=0x0	 RRESP=0x0	 RLAST=0x0

UVM_INFO @ 1505: uvm_test_top.env_inst.cov_model [COV_MODEL] Sampling write coverage for transaction: WSTRB=0x9, AWSIZE=0x2
ncsim: *E,EILLVS: (File: ../UVME/env/axi_cov_model.sv, Line: 29):(Time: 1505 NS + 1) Sampled value (13) for coverpoint (worklib.test_pkg::axi_cov_model::axi_write_cg@3068_2.AWID) is an illegal value.
UVM_INFO @ 1505: uvm_test_top.env_inst.sb [SCOREBOARD] 
WRITE Address: AWADDR=0xa6b0a3da	 AWID=0xd	 AWLEN=5	 AWSIZE=2	 AWBURST=1

UVM_INFO @ 1505: uvm_test_top.env_inst.sb [SCOREBOARD] 
WRITE Data:	 WDATA=0x'{'h36413c39}	 WSTRB=0x9	 WLAST=0

UVM_INFO @ 1505: uvm_test_top.env_inst.sb [SCOREBOARD] 
WRITE Response:	 BID=0xd	 BRESP=0x0

UVM_INFO @ 1515: uvm_test_top.env_inst.cov_model [COV_MODEL] Sampling read coverage for transaction: ARSIZE=0x0
UVM_INFO @ 1515: uvm_test_top.env_inst.sb [SCOREBOARD] 
READ Address: ARADDR=0x0	 ARID=0x0	 ARLEN=0	 ARSIZE=0	 ARBURST=0

UVM_INFO @ 1515: uvm_test_top.env_inst.sb [SCOREBOARD] 
READ Data: RDATA=0x0	 RRESP=0x0	 RLAST=0x0

UVM_INFO @ 1545: uvm_test_top.env_inst.cov_model [COV_MODEL] Sampling write coverage for transaction: WSTRB=0x9, AWSIZE=0x0
UVM_INFO @ 1545: uvm_test_top.env_inst.sb [SCOREBOARD] 
WRITE Address: AWADDR=0x0	 AWID=0x0	 AWLEN=0	 AWSIZE=0	 AWBURST=0

UVM_INFO @ 1545: uvm_test_top.env_inst.sb [SCOREBOARD] 
WRITE Data:	 WDATA=0x'{'h76b3c755}	 WSTRB=0x9	 WLAST=0

UVM_INFO @ 1545: uvm_test_top.env_inst.sb [SCOREBOARD] 
WRITE Response:	 BID=0xd	 BRESP=0x0

UVM_INFO @ 1555: uvm_test_top.env_inst.cov_model [COV_MODEL] Sampling read coverage for transaction: ARSIZE=0x0
UVM_INFO @ 1555: uvm_test_top.env_inst.sb [SCOREBOARD] 
READ Address: ARADDR=0x0	 ARID=0x0	 ARLEN=0	 ARSIZE=0	 ARBURST=0

UVM_INFO @ 1555: uvm_test_top.env_inst.sb [SCOREBOARD] 
READ Data: RDATA=0x0	 RRESP=0x0	 RLAST=0x0

UVM_INFO @ 1565: uvm_test_top.env_inst.agent_inst.seqr_inst@@multiple_outstanding_address_inst [SEQ] Running scenario = 27
UVM_INFO @ 1565: uvm_test_top.env_inst.agent_inst.seqr_inst@@multiple_outstanding_address_inst [SEQ] Randomized AWADDR = 0x'{'hf553f0f1, 'hb99e7124, 'h7fd12a51, 'h47ec1c79, 'h11ef479a, 'hdddaabb7, 'habae48cd, 'h7b6a1edd, 'h4d0e2de8, 'h209a75ed, 'hf60ef6ed, 'hcd6bb0e6, 'ha6b0a3da}
UVM_INFO @ 1565: uvm_test_top.env_inst.agent_inst.seqr_inst@@multiple_outstanding_address_inst [i] i value = 12
UVM_INFO @ 1565: uvm_test_top.env_inst.agent_inst.seqr_inst@@multiple_outstanding_address_inst [SEQ] rand_wr_addr[0] = 0xf553f0f1
UVM_INFO @ 1565: uvm_test_top.env_inst.agent_inst.seqr_inst@@multiple_outstanding_address_inst [SEQ] rand_wr_addr[1] = 0xb99e7124
UVM_INFO @ 1565: uvm_test_top.env_inst.agent_inst.seqr_inst@@multiple_outstanding_address_inst [SEQ] rand_wr_addr[2] = 0x7fd12a51
UVM_INFO @ 1565: uvm_test_top.env_inst.agent_inst.seqr_inst@@multiple_outstanding_address_inst [SEQ] rand_wr_addr[3] = 0x47ec1c79
UVM_INFO @ 1565: uvm_test_top.env_inst.agent_inst.seqr_inst@@multiple_outstanding_address_inst [SEQ] rand_wr_addr[4] = 0x11ef479a
UVM_INFO @ 1565: uvm_test_top.env_inst.agent_inst.seqr_inst@@multiple_outstanding_address_inst [SEQ] rand_wr_addr[5] = 0xdddaabb7
UVM_INFO @ 1565: uvm_test_top.env_inst.agent_inst.seqr_inst@@multiple_outstanding_address_inst [SEQ] rand_wr_addr[6] = 0xabae48cd
UVM_INFO @ 1565: uvm_test_top.env_inst.agent_inst.seqr_inst@@multiple_outstanding_address_inst [SEQ] rand_wr_addr[7] = 0x7b6a1edd
UVM_INFO @ 1565: uvm_test_top.env_inst.agent_inst.seqr_inst@@multiple_outstanding_address_inst [SEQ] rand_wr_addr[8] = 0x4d0e2de8
UVM_INFO @ 1565: uvm_test_top.env_inst.agent_inst.seqr_inst@@multiple_outstanding_address_inst [SEQ] rand_wr_addr[9] = 0x209a75ed
UVM_INFO @ 1565: uvm_test_top.env_inst.agent_inst.seqr_inst@@multiple_outstanding_address_inst [SEQ] rand_wr_addr[10] = 0xf60ef6ed
UVM_INFO @ 1565: uvm_test_top.env_inst.agent_inst.seqr_inst@@multiple_outstanding_address_inst [SEQ] rand_wr_addr[11] = 0xcd6bb0e6
UVM_INFO @ 1565: uvm_test_top.env_inst.agent_inst.seqr_inst@@multiple_outstanding_address_inst [SEQ] AWADDR = 0xa6b0a3da
UVM_INFO @ 1585: uvm_test_top.env_inst.cov_model [COV_MODEL] Sampling write coverage for transaction: WSTRB=0x0, AWSIZE=0x0
UVM_INFO @ 1585: uvm_test_top.env_inst.sb [SCOREBOARD] 
WRITE Address: AWADDR=0x0	 AWID=0x0	 AWLEN=0	 AWSIZE=0	 AWBURST=0

UVM_INFO @ 1585: uvm_test_top.env_inst.sb [SCOREBOARD] 
WRITE Data:	 WDATA=0x'{'h0}	 WSTRB=0x0	 WLAST=0

UVM_INFO @ 1585: uvm_test_top.env_inst.sb [SCOREBOARD] 
WRITE Response:	 BID=0x0	 BRESP=0x0

UVM_INFO @ 1595: uvm_test_top.env_inst.cov_model [COV_MODEL] Sampling read coverage for transaction: ARSIZE=0x0
UVM_INFO @ 1595: uvm_test_top.env_inst.sb [SCOREBOARD] 
READ Address: ARADDR=0x0	 ARID=0x0	 ARLEN=0	 ARSIZE=0	 ARBURST=0

UVM_INFO @ 1595: uvm_test_top.env_inst.sb [SCOREBOARD] 
READ Data: RDATA=0x0	 RRESP=0x0	 RLAST=0x0

UVM_INFO @ 1625: uvm_test_top.env_inst.cov_model [COV_MODEL] Sampling write coverage for transaction: WSTRB=0xf, AWSIZE=0x6
UVM_INFO @ 1625: uvm_test_top.env_inst.sb [SCOREBOARD] 
WRITE Address: AWADDR=0x81ddcfc8	 AWID=0x1	 AWLEN=5	 AWSIZE=6	 AWBURST=1

UVM_INFO @ 1625: uvm_test_top.env_inst.sb [SCOREBOARD] 
WRITE Data:	 WDATA=0x'{'h738a384b}	 WSTRB=0xf	 WLAST=0

UVM_INFO @ 1625: uvm_test_top.env_inst.sb [SCOREBOARD] 
WRITE Response:	 BID=0x1	 BRESP=0x0

UVM_INFO @ 1635: uvm_test_top.env_inst.cov_model [COV_MODEL] Sampling read coverage for transaction: ARSIZE=0x0
UVM_INFO @ 1635: uvm_test_top.env_inst.sb [SCOREBOARD] 
READ Address: ARADDR=0x0	 ARID=0x0	 ARLEN=0	 ARSIZE=0	 ARBURST=0

UVM_INFO @ 1635: uvm_test_top.env_inst.sb [SCOREBOARD] 
READ Data: RDATA=0x0	 RRESP=0x0	 RLAST=0x0

UVM_INFO @ 1665: uvm_test_top.env_inst.cov_model [COV_MODEL] Sampling write coverage for transaction: WSTRB=0xf, AWSIZE=0x0
UVM_INFO @ 1665: uvm_test_top.env_inst.sb [SCOREBOARD] 
WRITE Address: AWADDR=0x0	 AWID=0x0	 AWLEN=0	 AWSIZE=0	 AWBURST=0

UVM_INFO @ 1665: uvm_test_top.env_inst.sb [SCOREBOARD] 
WRITE Data:	 WDATA=0x'{'hf00218f2}	 WSTRB=0xf	 WLAST=0

UVM_INFO @ 1665: uvm_test_top.env_inst.sb [SCOREBOARD] 
WRITE Response:	 BID=0x1	 BRESP=0x0

UVM_INFO @ 1675: uvm_test_top.env_inst.cov_model [COV_MODEL] Sampling read coverage for transaction: ARSIZE=0x0
UVM_INFO @ 1675: uvm_test_top.env_inst.sb [SCOREBOARD] 
READ Address: ARADDR=0x0	 ARID=0x0	 ARLEN=0	 ARSIZE=0	 ARBURST=0

UVM_INFO @ 1675: uvm_test_top.env_inst.sb [SCOREBOARD] 
READ Data: RDATA=0x0	 RRESP=0x0	 RLAST=0x0

UVM_INFO @ 1685: uvm_test_top.env_inst.agent_inst.seqr_inst@@multiple_outstanding_address_inst [SEQ] Running scenario = 27
UVM_INFO @ 1685: uvm_test_top.env_inst.agent_inst.seqr_inst@@multiple_outstanding_address_inst [SEQ] Randomized AWADDR = 0x'{'hf553f0f1, 'hb99e7124, 'h7fd12a51, 'h47ec1c79, 'h11ef479a, 'hdddaabb7, 'habae48cd, 'h7b6a1edd, 'h4d0e2de8, 'h209a75ed, 'hf60ef6ed, 'hcd6bb0e6, 'ha6b0a3da, 'h81ddcfc8}
UVM_INFO @ 1685: uvm_test_top.env_inst.agent_inst.seqr_inst@@multiple_outstanding_address_inst [i] i value = 13
UVM_INFO @ 1685: uvm_test_top.env_inst.agent_inst.seqr_inst@@multiple_outstanding_address_inst [SEQ] rand_wr_addr[0] = 0xf553f0f1
UVM_INFO @ 1685: uvm_test_top.env_inst.agent_inst.seqr_inst@@multiple_outstanding_address_inst [SEQ] rand_wr_addr[1] = 0xb99e7124
UVM_INFO @ 1685: uvm_test_top.env_inst.agent_inst.seqr_inst@@multiple_outstanding_address_inst [SEQ] rand_wr_addr[2] = 0x7fd12a51
UVM_INFO @ 1685: uvm_test_top.env_inst.agent_inst.seqr_inst@@multiple_outstanding_address_inst [SEQ] rand_wr_addr[3] = 0x47ec1c79
UVM_INFO @ 1685: uvm_test_top.env_inst.agent_inst.seqr_inst@@multiple_outstanding_address_inst [SEQ] rand_wr_addr[4] = 0x11ef479a
UVM_INFO @ 1685: uvm_test_top.env_inst.agent_inst.seqr_inst@@multiple_outstanding_address_inst [SEQ] rand_wr_addr[5] = 0xdddaabb7
UVM_INFO @ 1685: uvm_test_top.env_inst.agent_inst.seqr_inst@@multiple_outstanding_address_inst [SEQ] rand_wr_addr[6] = 0xabae48cd
UVM_INFO @ 1685: uvm_test_top.env_inst.agent_inst.seqr_inst@@multiple_outstanding_address_inst [SEQ] rand_wr_addr[7] = 0x7b6a1edd
UVM_INFO @ 1685: uvm_test_top.env_inst.agent_inst.seqr_inst@@multiple_outstanding_address_inst [SEQ] rand_wr_addr[8] = 0x4d0e2de8
UVM_INFO @ 1685: uvm_test_top.env_inst.agent_inst.seqr_inst@@multiple_outstanding_address_inst [SEQ] rand_wr_addr[9] = 0x209a75ed
UVM_INFO @ 1685: uvm_test_top.env_inst.agent_inst.seqr_inst@@multiple_outstanding_address_inst [SEQ] rand_wr_addr[10] = 0xf60ef6ed
UVM_INFO @ 1685: uvm_test_top.env_inst.agent_inst.seqr_inst@@multiple_outstanding_address_inst [SEQ] rand_wr_addr[11] = 0xcd6bb0e6
UVM_INFO @ 1685: uvm_test_top.env_inst.agent_inst.seqr_inst@@multiple_outstanding_address_inst [SEQ] rand_wr_addr[12] = 0xa6b0a3da
UVM_INFO @ 1685: uvm_test_top.env_inst.agent_inst.seqr_inst@@multiple_outstanding_address_inst [SEQ] AWADDR = 0x81ddcfc8
UVM_INFO @ 1705: uvm_test_top.env_inst.cov_model [COV_MODEL] Sampling write coverage for transaction: WSTRB=0x0, AWSIZE=0x0
UVM_INFO @ 1705: uvm_test_top.env_inst.sb [SCOREBOARD] 
WRITE Address: AWADDR=0x0	 AWID=0x0	 AWLEN=0	 AWSIZE=0	 AWBURST=0

UVM_INFO @ 1705: uvm_test_top.env_inst.sb [SCOREBOARD] 
WRITE Data:	 WDATA=0x'{'h0}	 WSTRB=0x0	 WLAST=0

UVM_INFO @ 1705: uvm_test_top.env_inst.sb [SCOREBOARD] 
WRITE Response:	 BID=0x0	 BRESP=0x0

UVM_INFO @ 1715: uvm_test_top.env_inst.cov_model [COV_MODEL] Sampling read coverage for transaction: ARSIZE=0x0
UVM_INFO @ 1715: uvm_test_top.env_inst.sb [SCOREBOARD] 
READ Address: ARADDR=0x0	 ARID=0x0	 ARLEN=0	 ARSIZE=0	 ARBURST=0

UVM_INFO @ 1715: uvm_test_top.env_inst.sb [SCOREBOARD] 
READ Data: RDATA=0x0	 RRESP=0x0	 RLAST=0x0

UVM_INFO @ 1745: uvm_test_top.env_inst.cov_model [COV_MODEL] Sampling write coverage for transaction: WSTRB=0xa, AWSIZE=0x6
ncsim: *E,EILLVS: (File: ../UVME/env/axi_cov_model.sv, Line: 29):(Time: 1745 NS + 1) Sampled value (7) for coverpoint (worklib.test_pkg::axi_cov_model::axi_write_cg@3068_2.AWID) is an illegal value.
UVM_INFO @ 1745: uvm_test_top.env_inst.sb [SCOREBOARD] 
WRITE Address: AWADDR=0x5ef334b1	 AWID=0x7	 AWLEN=5	 AWSIZE=6	 AWBURST=1

UVM_INFO @ 1745: uvm_test_top.env_inst.sb [SCOREBOARD] 
WRITE Data:	 WDATA=0x'{'h525196e5}	 WSTRB=0xa	 WLAST=0

UVM_INFO @ 1745: uvm_test_top.env_inst.sb [SCOREBOARD] 
WRITE Response:	 BID=0x7	 BRESP=0x0

UVM_INFO @ 1755: uvm_test_top.env_inst.cov_model [COV_MODEL] Sampling read coverage for transaction: ARSIZE=0x0
UVM_INFO @ 1755: uvm_test_top.env_inst.sb [SCOREBOARD] 
READ Address: ARADDR=0x0	 ARID=0x0	 ARLEN=0	 ARSIZE=0	 ARBURST=0

UVM_INFO @ 1755: uvm_test_top.env_inst.sb [SCOREBOARD] 
READ Data: RDATA=0x0	 RRESP=0x0	 RLAST=0x0

UVM_INFO @ 1785: uvm_test_top.env_inst.cov_model [COV_MODEL] Sampling write coverage for transaction: WSTRB=0xa, AWSIZE=0x0
UVM_INFO @ 1785: uvm_test_top.env_inst.sb [SCOREBOARD] 
WRITE Address: AWADDR=0x0	 AWID=0x0	 AWLEN=0	 AWSIZE=0	 AWBURST=0

UVM_INFO @ 1785: uvm_test_top.env_inst.sb [SCOREBOARD] 
WRITE Data:	 WDATA=0x'{'hf0511f9}	 WSTRB=0xa	 WLAST=0

UVM_INFO @ 1785: uvm_test_top.env_inst.sb [SCOREBOARD] 
WRITE Response:	 BID=0x7	 BRESP=0x0

UVM_INFO @ 1795: uvm_test_top.env_inst.cov_model [COV_MODEL] Sampling read coverage for transaction: ARSIZE=0x0
UVM_INFO @ 1795: uvm_test_top.env_inst.sb [SCOREBOARD] 
READ Address: ARADDR=0x0	 ARID=0x0	 ARLEN=0	 ARSIZE=0	 ARBURST=0

UVM_INFO @ 1795: uvm_test_top.env_inst.sb [SCOREBOARD] 
READ Data: RDATA=0x0	 RRESP=0x0	 RLAST=0x0

UVM_INFO @ 1805: uvm_test_top.env_inst.agent_inst.seqr_inst@@multiple_outstanding_address_inst [SEQ] Running scenario = 27
UVM_INFO @ 1805: uvm_test_top.env_inst.agent_inst.seqr_inst@@multiple_outstanding_address_inst [SEQ] Randomized AWADDR = 0x'{'hf553f0f1, 'hb99e7124, 'h7fd12a51, 'h47ec1c79, 'h11ef479a, 'hdddaabb7, 'habae48cd, 'h7b6a1edd, 'h4d0e2de8, 'h209a75ed, 'hf60ef6ed, 'hcd6bb0e6, 'ha6b0a3da, 'h81ddcfc8, 'h5ef334b1}
UVM_INFO @ 1805: uvm_test_top.env_inst.agent_inst.seqr_inst@@multiple_outstanding_address_inst [i] i value = 14
UVM_INFO @ 1805: uvm_test_top.env_inst.agent_inst.seqr_inst@@multiple_outstanding_address_inst [SEQ] rand_wr_addr[0] = 0xf553f0f1
UVM_INFO @ 1805: uvm_test_top.env_inst.agent_inst.seqr_inst@@multiple_outstanding_address_inst [SEQ] rand_wr_addr[1] = 0xb99e7124
UVM_INFO @ 1805: uvm_test_top.env_inst.agent_inst.seqr_inst@@multiple_outstanding_address_inst [SEQ] rand_wr_addr[2] = 0x7fd12a51
UVM_INFO @ 1805: uvm_test_top.env_inst.agent_inst.seqr_inst@@multiple_outstanding_address_inst [SEQ] rand_wr_addr[3] = 0x47ec1c79
UVM_INFO @ 1805: uvm_test_top.env_inst.agent_inst.seqr_inst@@multiple_outstanding_address_inst [SEQ] rand_wr_addr[4] = 0x11ef479a
UVM_INFO @ 1805: uvm_test_top.env_inst.agent_inst.seqr_inst@@multiple_outstanding_address_inst [SEQ] rand_wr_addr[5] = 0xdddaabb7
UVM_INFO @ 1805: uvm_test_top.env_inst.agent_inst.seqr_inst@@multiple_outstanding_address_inst [SEQ] rand_wr_addr[6] = 0xabae48cd
UVM_INFO @ 1805: uvm_test_top.env_inst.agent_inst.seqr_inst@@multiple_outstanding_address_inst [SEQ] rand_wr_addr[7] = 0x7b6a1edd
UVM_INFO @ 1805: uvm_test_top.env_inst.agent_inst.seqr_inst@@multiple_outstanding_address_inst [SEQ] rand_wr_addr[8] = 0x4d0e2de8
UVM_INFO @ 1805: uvm_test_top.env_inst.agent_inst.seqr_inst@@multiple_outstanding_address_inst [SEQ] rand_wr_addr[9] = 0x209a75ed
UVM_INFO @ 1805: uvm_test_top.env_inst.agent_inst.seqr_inst@@multiple_outstanding_address_inst [SEQ] rand_wr_addr[10] = 0xf60ef6ed
UVM_INFO @ 1805: uvm_test_top.env_inst.agent_inst.seqr_inst@@multiple_outstanding_address_inst [SEQ] rand_wr_addr[11] = 0xcd6bb0e6
UVM_INFO @ 1805: uvm_test_top.env_inst.agent_inst.seqr_inst@@multiple_outstanding_address_inst [SEQ] rand_wr_addr[12] = 0xa6b0a3da
UVM_INFO @ 1805: uvm_test_top.env_inst.agent_inst.seqr_inst@@multiple_outstanding_address_inst [SEQ] rand_wr_addr[13] = 0x81ddcfc8
UVM_INFO @ 1805: uvm_test_top.env_inst.agent_inst.seqr_inst@@multiple_outstanding_address_inst [SEQ] AWADDR = 0x5ef334b1
UVM_INFO @ 1825: uvm_test_top.env_inst.cov_model [COV_MODEL] Sampling write coverage for transaction: WSTRB=0x0, AWSIZE=0x0
UVM_INFO @ 1825: uvm_test_top.env_inst.sb [SCOREBOARD] 
WRITE Address: AWADDR=0x0	 AWID=0x0	 AWLEN=0	 AWSIZE=0	 AWBURST=0

UVM_INFO @ 1825: uvm_test_top.env_inst.sb [SCOREBOARD] 
WRITE Data:	 WDATA=0x'{'h0}	 WSTRB=0x0	 WLAST=0

UVM_INFO @ 1825: uvm_test_top.env_inst.sb [SCOREBOARD] 
WRITE Response:	 BID=0x0	 BRESP=0x0

UVM_INFO @ 1835: uvm_test_top.env_inst.cov_model [COV_MODEL] Sampling read coverage for transaction: ARSIZE=0x0
UVM_INFO @ 1835: uvm_test_top.env_inst.sb [SCOREBOARD] 
READ Address: ARADDR=0x0	 ARID=0x0	 ARLEN=0	 ARSIZE=0	 ARBURST=0

UVM_INFO @ 1835: uvm_test_top.env_inst.sb [SCOREBOARD] 
READ Data: RDATA=0x0	 RRESP=0x0	 RLAST=0x0

UVM_INFO @ 1865: uvm_test_top.env_inst.cov_model [COV_MODEL] Sampling write coverage for transaction: WSTRB=0xb, AWSIZE=0x4
UVM_INFO @ 1865: uvm_test_top.env_inst.sb [SCOREBOARD] 
WRITE Address: AWADDR=0x3df0d293	 AWID=0x0	 AWLEN=5	 AWSIZE=4	 AWBURST=1

UVM_INFO @ 1865: uvm_test_top.env_inst.sb [SCOREBOARD] 
WRITE Data:	 WDATA=0x'{'hd2975808}	 WSTRB=0xb	 WLAST=0

UVM_INFO @ 1865: uvm_test_top.env_inst.sb [SCOREBOARD] 
WRITE Response:	 BID=0x0	 BRESP=0x0

UVM_INFO @ 1875: uvm_test_top.env_inst.cov_model [COV_MODEL] Sampling read coverage for transaction: ARSIZE=0x0
UVM_INFO @ 1875: uvm_test_top.env_inst.sb [SCOREBOARD] 
READ Address: ARADDR=0x0	 ARID=0x0	 ARLEN=0	 ARSIZE=0	 ARBURST=0

UVM_INFO @ 1875: uvm_test_top.env_inst.sb [SCOREBOARD] 
READ Data: RDATA=0x0	 RRESP=0x0	 RLAST=0x0

UVM_INFO @ 1905: uvm_test_top.env_inst.cov_model [COV_MODEL] Sampling write coverage for transaction: WSTRB=0xb, AWSIZE=0x0
UVM_INFO @ 1905: uvm_test_top.env_inst.sb [SCOREBOARD] 
WRITE Address: AWADDR=0x0	 AWID=0x0	 AWLEN=0	 AWSIZE=0	 AWBURST=0

UVM_INFO @ 1905: uvm_test_top.env_inst.sb [SCOREBOARD] 
WRITE Data:	 WDATA=0x'{'hd3bcb269}	 WSTRB=0xb	 WLAST=0

UVM_INFO @ 1905: uvm_test_top.env_inst.sb [SCOREBOARD] 
WRITE Response:	 BID=0x0	 BRESP=0x0

UVM_INFO @ 1915: uvm_test_top.env_inst.cov_model [COV_MODEL] Sampling read coverage for transaction: ARSIZE=0x0
UVM_INFO @ 1915: uvm_test_top.env_inst.sb [SCOREBOARD] 
READ Address: ARADDR=0x0	 ARID=0x0	 ARLEN=0	 ARSIZE=0	 ARBURST=0

UVM_INFO @ 1915: uvm_test_top.env_inst.sb [SCOREBOARD] 
READ Data: RDATA=0x0	 RRESP=0x0	 RLAST=0x0

UVM_INFO @ 1925: uvm_test_top.env_inst.agent_inst.seqr_inst@@multiple_outstanding_address_inst [SEQ] Running scenario = 27
UVM_INFO @ 1925: uvm_test_top.env_inst.agent_inst.seqr_inst@@multiple_outstanding_address_inst [SEQ] Randomized AWADDR = 0x'{'hf553f0f1, 'hb99e7124, 'h7fd12a51, 'h47ec1c79, 'h11ef479a, 'hdddaabb7, 'habae48cd, 'h7b6a1edd, 'h4d0e2de8, 'h209a75ed, 'hf60ef6ed, 'hcd6bb0e6, 'ha6b0a3da, 'h81ddcfc8, 'h5ef334b1, 'h3df0d293}
UVM_INFO @ 1925: uvm_test_top.env_inst.agent_inst.seqr_inst@@multiple_outstanding_address_inst [i] i value = 15
UVM_INFO @ 1925: uvm_test_top.env_inst.agent_inst.seqr_inst@@multiple_outstanding_address_inst [SEQ] rand_wr_addr[0] = 0xf553f0f1
UVM_INFO @ 1925: uvm_test_top.env_inst.agent_inst.seqr_inst@@multiple_outstanding_address_inst [SEQ] rand_wr_addr[1] = 0xb99e7124
UVM_INFO @ 1925: uvm_test_top.env_inst.agent_inst.seqr_inst@@multiple_outstanding_address_inst [SEQ] rand_wr_addr[2] = 0x7fd12a51
UVM_INFO @ 1925: uvm_test_top.env_inst.agent_inst.seqr_inst@@multiple_outstanding_address_inst [SEQ] rand_wr_addr[3] = 0x47ec1c79
UVM_INFO @ 1925: uvm_test_top.env_inst.agent_inst.seqr_inst@@multiple_outstanding_address_inst [SEQ] rand_wr_addr[4] = 0x11ef479a
UVM_INFO @ 1925: uvm_test_top.env_inst.agent_inst.seqr_inst@@multiple_outstanding_address_inst [SEQ] rand_wr_addr[5] = 0xdddaabb7
UVM_INFO @ 1925: uvm_test_top.env_inst.agent_inst.seqr_inst@@multiple_outstanding_address_inst [SEQ] rand_wr_addr[6] = 0xabae48cd
UVM_INFO @ 1925: uvm_test_top.env_inst.agent_inst.seqr_inst@@multiple_outstanding_address_inst [SEQ] rand_wr_addr[7] = 0x7b6a1edd
UVM_INFO @ 1925: uvm_test_top.env_inst.agent_inst.seqr_inst@@multiple_outstanding_address_inst [SEQ] rand_wr_addr[8] = 0x4d0e2de8
UVM_INFO @ 1925: uvm_test_top.env_inst.agent_inst.seqr_inst@@multiple_outstanding_address_inst [SEQ] rand_wr_addr[9] = 0x209a75ed
UVM_INFO @ 1925: uvm_test_top.env_inst.agent_inst.seqr_inst@@multiple_outstanding_address_inst [SEQ] rand_wr_addr[10] = 0xf60ef6ed
UVM_INFO @ 1925: uvm_test_top.env_inst.agent_inst.seqr_inst@@multiple_outstanding_address_inst [SEQ] rand_wr_addr[11] = 0xcd6bb0e6
UVM_INFO @ 1925: uvm_test_top.env_inst.agent_inst.seqr_inst@@multiple_outstanding_address_inst [SEQ] rand_wr_addr[12] = 0xa6b0a3da
UVM_INFO @ 1925: uvm_test_top.env_inst.agent_inst.seqr_inst@@multiple_outstanding_address_inst [SEQ] rand_wr_addr[13] = 0x81ddcfc8
UVM_INFO @ 1925: uvm_test_top.env_inst.agent_inst.seqr_inst@@multiple_outstanding_address_inst [SEQ] rand_wr_addr[14] = 0x5ef334b1
UVM_INFO @ 1925: uvm_test_top.env_inst.agent_inst.seqr_inst@@multiple_outstanding_address_inst [SEQ] AWADDR = 0x3df0d293
UVM_INFO @ 1945: uvm_test_top.env_inst.cov_model [COV_MODEL] Sampling write coverage for transaction: WSTRB=0x0, AWSIZE=0x0
UVM_INFO @ 1945: uvm_test_top.env_inst.sb [SCOREBOARD] 
WRITE Address: AWADDR=0x0	 AWID=0x0	 AWLEN=0	 AWSIZE=0	 AWBURST=0

UVM_INFO @ 1945: uvm_test_top.env_inst.sb [SCOREBOARD] 
WRITE Data:	 WDATA=0x'{'h0}	 WSTRB=0x0	 WLAST=0

UVM_INFO @ 1945: uvm_test_top.env_inst.sb [SCOREBOARD] 
WRITE Response:	 BID=0x0	 BRESP=0x0

UVM_INFO @ 1955: uvm_test_top.env_inst.cov_model [COV_MODEL] Sampling read coverage for transaction: ARSIZE=0x0
UVM_INFO @ 1955: uvm_test_top.env_inst.sb [SCOREBOARD] 
READ Address: ARADDR=0x0	 ARID=0x0	 ARLEN=0	 ARSIZE=0	 ARBURST=0

UVM_INFO @ 1955: uvm_test_top.env_inst.sb [SCOREBOARD] 
READ Data: RDATA=0x0	 RRESP=0x0	 RLAST=0x0

UVM_INFO @ 1985: uvm_test_top.env_inst.cov_model [COV_MODEL] Sampling write coverage for transaction: WSTRB=0x0, AWSIZE=0x6
ncsim: *E,EILLVS: (File: ../UVME/env/axi_cov_model.sv, Line: 29):(Time: 1985 NS + 1) Sampled value (11) for coverpoint (worklib.test_pkg::axi_cov_model::axi_write_cg@3068_2.AWID) is an illegal value.
UVM_INFO @ 1985: uvm_test_top.env_inst.sb [SCOREBOARD] 
WRITE Address: AWADDR=0x1ed6a970	 AWID=0xb	 AWLEN=5	 AWSIZE=6	 AWBURST=1

UVM_INFO @ 1985: uvm_test_top.env_inst.sb [SCOREBOARD] 
WRITE Data:	 WDATA=0x'{'hf45b7bb2}	 WSTRB=0x0	 WLAST=0

UVM_INFO @ 1985: uvm_test_top.env_inst.sb [SCOREBOARD] 
WRITE Response:	 BID=0xb	 BRESP=0x0

UVM_INFO @ 1995: uvm_test_top.env_inst.cov_model [COV_MODEL] Sampling read coverage for transaction: ARSIZE=0x0
UVM_INFO @ 1995: uvm_test_top.env_inst.sb [SCOREBOARD] 
READ Address: ARADDR=0x0	 ARID=0x0	 ARLEN=0	 ARSIZE=0	 ARBURST=0

UVM_INFO @ 1995: uvm_test_top.env_inst.sb [SCOREBOARD] 
READ Data: RDATA=0x0	 RRESP=0x0	 RLAST=0x0

UVM_INFO @ 2025: uvm_test_top.env_inst.cov_model [COV_MODEL] Sampling write coverage for transaction: WSTRB=0x0, AWSIZE=0x0
UVM_INFO @ 2025: uvm_test_top.env_inst.sb [SCOREBOARD] 
WRITE Address: AWADDR=0x0	 AWID=0x0	 AWLEN=0	 AWSIZE=0	 AWBURST=0

UVM_INFO @ 2025: uvm_test_top.env_inst.sb [SCOREBOARD] 
WRITE Data:	 WDATA=0x'{'h3e28fa42}	 WSTRB=0x0	 WLAST=0

UVM_INFO @ 2025: uvm_test_top.env_inst.sb [SCOREBOARD] 
WRITE Response:	 BID=0xb	 BRESP=0x0

UVM_INFO @ 2035: uvm_test_top.env_inst.cov_model [COV_MODEL] Sampling read coverage for transaction: ARSIZE=0x0
UVM_INFO @ 2035: uvm_test_top.env_inst.sb [SCOREBOARD] 
READ Address: ARADDR=0x0	 ARID=0x0	 ARLEN=0	 ARSIZE=0	 ARBURST=0

UVM_INFO @ 2035: uvm_test_top.env_inst.sb [SCOREBOARD] 
READ Data: RDATA=0x0	 RRESP=0x0	 RLAST=0x0

UVM_INFO @ 2045: uvm_test_top.env_inst.agent_inst.seqr_inst@@multiple_outstanding_address_inst [SEQ] Running scenario = 27
UVM_INFO @ 2045: uvm_test_top.env_inst.agent_inst.seqr_inst@@multiple_outstanding_address_inst [SEQ] Randomized AWADDR = 0x'{'hf553f0f1, 'hb99e7124, 'h7fd12a51, 'h47ec1c79, 'h11ef479a, 'hdddaabb7, 'habae48cd, 'h7b6a1edd, 'h4d0e2de8, 'h209a75ed, 'hf60ef6ed, 'hcd6bb0e6, 'ha6b0a3da, 'h81ddcfc8, 'h5ef334b1, 'h3df0d293, 'h1ed6a970}
UVM_INFO @ 2045: uvm_test_top.env_inst.agent_inst.seqr_inst@@multiple_outstanding_address_inst [i] i value = 16
UVM_INFO @ 2045: uvm_test_top.env_inst.agent_inst.seqr_inst@@multiple_outstanding_address_inst [SEQ] rand_wr_addr[0] = 0xf553f0f1
UVM_INFO @ 2045: uvm_test_top.env_inst.agent_inst.seqr_inst@@multiple_outstanding_address_inst [SEQ] rand_wr_addr[1] = 0xb99e7124
UVM_INFO @ 2045: uvm_test_top.env_inst.agent_inst.seqr_inst@@multiple_outstanding_address_inst [SEQ] rand_wr_addr[2] = 0x7fd12a51
UVM_INFO @ 2045: uvm_test_top.env_inst.agent_inst.seqr_inst@@multiple_outstanding_address_inst [SEQ] rand_wr_addr[3] = 0x47ec1c79
UVM_INFO @ 2045: uvm_test_top.env_inst.agent_inst.seqr_inst@@multiple_outstanding_address_inst [SEQ] rand_wr_addr[4] = 0x11ef479a
UVM_INFO @ 2045: uvm_test_top.env_inst.agent_inst.seqr_inst@@multiple_outstanding_address_inst [SEQ] rand_wr_addr[5] = 0xdddaabb7
UVM_INFO @ 2045: uvm_test_top.env_inst.agent_inst.seqr_inst@@multiple_outstanding_address_inst [SEQ] rand_wr_addr[6] = 0xabae48cd
UVM_INFO @ 2045: uvm_test_top.env_inst.agent_inst.seqr_inst@@multiple_outstanding_address_inst [SEQ] rand_wr_addr[7] = 0x7b6a1edd
UVM_INFO @ 2045: uvm_test_top.env_inst.agent_inst.seqr_inst@@multiple_outstanding_address_inst [SEQ] rand_wr_addr[8] = 0x4d0e2de8
UVM_INFO @ 2045: uvm_test_top.env_inst.agent_inst.seqr_inst@@multiple_outstanding_address_inst [SEQ] rand_wr_addr[9] = 0x209a75ed
UVM_INFO @ 2045: uvm_test_top.env_inst.agent_inst.seqr_inst@@multiple_outstanding_address_inst [SEQ] rand_wr_addr[10] = 0xf60ef6ed
UVM_INFO @ 2045: uvm_test_top.env_inst.agent_inst.seqr_inst@@multiple_outstanding_address_inst [SEQ] rand_wr_addr[11] = 0xcd6bb0e6
UVM_INFO @ 2045: uvm_test_top.env_inst.agent_inst.seqr_inst@@multiple_outstanding_address_inst [SEQ] rand_wr_addr[12] = 0xa6b0a3da
UVM_INFO @ 2045: uvm_test_top.env_inst.agent_inst.seqr_inst@@multiple_outstanding_address_inst [SEQ] rand_wr_addr[13] = 0x81ddcfc8
UVM_INFO @ 2045: uvm_test_top.env_inst.agent_inst.seqr_inst@@multiple_outstanding_address_inst [SEQ] rand_wr_addr[14] = 0x5ef334b1
UVM_INFO @ 2045: uvm_test_top.env_inst.agent_inst.seqr_inst@@multiple_outstanding_address_inst [SEQ] rand_wr_addr[15] = 0x3df0d293
UVM_INFO @ 2045: uvm_test_top.env_inst.agent_inst.seqr_inst@@multiple_outstanding_address_inst [SEQ] AWADDR = 0x1ed6a970
UVM_INFO @ 2065: uvm_test_top.env_inst.cov_model [COV_MODEL] Sampling write coverage for transaction: WSTRB=0x0, AWSIZE=0x0
UVM_INFO @ 2065: uvm_test_top.env_inst.sb [SCOREBOARD] 
WRITE Address: AWADDR=0x0	 AWID=0x0	 AWLEN=0	 AWSIZE=0	 AWBURST=0

UVM_INFO @ 2065: uvm_test_top.env_inst.sb [SCOREBOARD] 
WRITE Data:	 WDATA=0x'{'h0}	 WSTRB=0x0	 WLAST=0

UVM_INFO @ 2065: uvm_test_top.env_inst.sb [SCOREBOARD] 
WRITE Response:	 BID=0x0	 BRESP=0x0

UVM_INFO @ 2075: uvm_test_top.env_inst.cov_model [COV_MODEL] Sampling read coverage for transaction: ARSIZE=0x0
UVM_INFO @ 2075: uvm_test_top.env_inst.sb [SCOREBOARD] 
READ Address: ARADDR=0x0	 ARID=0x0	 ARLEN=0	 ARSIZE=0	 ARBURST=0

UVM_INFO @ 2075: uvm_test_top.env_inst.sb [SCOREBOARD] 
READ Data: RDATA=0x0	 RRESP=0x0	 RLAST=0x0

UVM_INFO @ 2105: uvm_test_top.env_inst.cov_model [COV_MODEL] Sampling write coverage for transaction: WSTRB=0xb, AWSIZE=0x5
ncsim: *E,EILLVS: (File: ../UVME/env/axi_cov_model.sv, Line: 29):(Time: 2105 NS + 1) Sampled value (9) for coverpoint (worklib.test_pkg::axi_cov_model::axi_write_cg@3068_2.AWID) is an illegal value.
UVM_INFO @ 2105: uvm_test_top.env_inst.sb [SCOREBOARD] 
WRITE Address: AWADDR=0x1a4b947	 AWID=0x9	 AWLEN=5	 AWSIZE=5	 AWBURST=1

UVM_INFO @ 2105: uvm_test_top.env_inst.sb [SCOREBOARD] 
WRITE Data:	 WDATA=0x'{'hb79e01e5}	 WSTRB=0xb	 WLAST=0

UVM_INFO @ 2105: uvm_test_top.env_inst.sb [SCOREBOARD] 
WRITE Response:	 BID=0x9	 BRESP=0x0

UVM_INFO @ 2115: uvm_test_top.env_inst.cov_model [COV_MODEL] Sampling read coverage for transaction: ARSIZE=0x0
UVM_INFO @ 2115: uvm_test_top.env_inst.sb [SCOREBOARD] 
READ Address: ARADDR=0x0	 ARID=0x0	 ARLEN=0	 ARSIZE=0	 ARBURST=0

UVM_INFO @ 2115: uvm_test_top.env_inst.sb [SCOREBOARD] 
READ Data: RDATA=0x0	 RRESP=0x0	 RLAST=0x0

UVM_INFO @ 2145: uvm_test_top.env_inst.cov_model [COV_MODEL] Sampling write coverage for transaction: WSTRB=0xb, AWSIZE=0x0
UVM_INFO @ 2145: uvm_test_top.env_inst.sb [SCOREBOARD] 
WRITE Address: AWADDR=0x0	 AWID=0x0	 AWLEN=0	 AWSIZE=0	 AWBURST=0

UVM_INFO @ 2145: uvm_test_top.env_inst.sb [SCOREBOARD] 
WRITE Data:	 WDATA=0x'{'h4e49e985}	 WSTRB=0xb	 WLAST=0

UVM_INFO @ 2145: uvm_test_top.env_inst.sb [SCOREBOARD] 
WRITE Response:	 BID=0x9	 BRESP=0x0

UVM_INFO @ 2155: uvm_test_top.env_inst.cov_model [COV_MODEL] Sampling read coverage for transaction: ARSIZE=0x0
UVM_INFO @ 2155: uvm_test_top.env_inst.sb [SCOREBOARD] 
READ Address: ARADDR=0x0	 ARID=0x0	 ARLEN=0	 ARSIZE=0	 ARBURST=0

UVM_INFO @ 2155: uvm_test_top.env_inst.sb [SCOREBOARD] 
READ Data: RDATA=0x0	 RRESP=0x0	 RLAST=0x0

UVM_INFO @ 2165: uvm_test_top.env_inst.agent_inst.seqr_inst@@multiple_outstanding_address_inst [SEQ] Running scenario = 27
UVM_INFO @ 2165: uvm_test_top.env_inst.agent_inst.seqr_inst@@multiple_outstanding_address_inst [SEQ] Randomized AWADDR = 0x'{'hf553f0f1, 'hb99e7124, 'h7fd12a51, 'h47ec1c79, 'h11ef479a, 'hdddaabb7, 'habae48cd, 'h7b6a1edd, 'h4d0e2de8, 'h209a75ed, 'hf60ef6ed, 'hcd6bb0e6, 'ha6b0a3da, 'h81ddcfc8, 'h5ef334b1, 'h3df0d293, 'h1ed6a970, 'h1a4b947}
UVM_INFO @ 2165: uvm_test_top.env_inst.agent_inst.seqr_inst@@multiple_outstanding_address_inst [i] i value = 17
UVM_INFO @ 2165: uvm_test_top.env_inst.agent_inst.seqr_inst@@multiple_outstanding_address_inst [SEQ] rand_wr_addr[0] = 0xf553f0f1
UVM_INFO @ 2165: uvm_test_top.env_inst.agent_inst.seqr_inst@@multiple_outstanding_address_inst [SEQ] rand_wr_addr[1] = 0xb99e7124
UVM_INFO @ 2165: uvm_test_top.env_inst.agent_inst.seqr_inst@@multiple_outstanding_address_inst [SEQ] rand_wr_addr[2] = 0x7fd12a51
UVM_INFO @ 2165: uvm_test_top.env_inst.agent_inst.seqr_inst@@multiple_outstanding_address_inst [SEQ] rand_wr_addr[3] = 0x47ec1c79
UVM_INFO @ 2165: uvm_test_top.env_inst.agent_inst.seqr_inst@@multiple_outstanding_address_inst [SEQ] rand_wr_addr[4] = 0x11ef479a
UVM_INFO @ 2165: uvm_test_top.env_inst.agent_inst.seqr_inst@@multiple_outstanding_address_inst [SEQ] rand_wr_addr[5] = 0xdddaabb7
UVM_INFO @ 2165: uvm_test_top.env_inst.agent_inst.seqr_inst@@multiple_outstanding_address_inst [SEQ] rand_wr_addr[6] = 0xabae48cd
UVM_INFO @ 2165: uvm_test_top.env_inst.agent_inst.seqr_inst@@multiple_outstanding_address_inst [SEQ] rand_wr_addr[7] = 0x7b6a1edd
UVM_INFO @ 2165: uvm_test_top.env_inst.agent_inst.seqr_inst@@multiple_outstanding_address_inst [SEQ] rand_wr_addr[8] = 0x4d0e2de8
UVM_INFO @ 2165: uvm_test_top.env_inst.agent_inst.seqr_inst@@multiple_outstanding_address_inst [SEQ] rand_wr_addr[9] = 0x209a75ed
UVM_INFO @ 2165: uvm_test_top.env_inst.agent_inst.seqr_inst@@multiple_outstanding_address_inst [SEQ] rand_wr_addr[10] = 0xf60ef6ed
UVM_INFO @ 2165: uvm_test_top.env_inst.agent_inst.seqr_inst@@multiple_outstanding_address_inst [SEQ] rand_wr_addr[11] = 0xcd6bb0e6
UVM_INFO @ 2165: uvm_test_top.env_inst.agent_inst.seqr_inst@@multiple_outstanding_address_inst [SEQ] rand_wr_addr[12] = 0xa6b0a3da
UVM_INFO @ 2165: uvm_test_top.env_inst.agent_inst.seqr_inst@@multiple_outstanding_address_inst [SEQ] rand_wr_addr[13] = 0x81ddcfc8
UVM_INFO @ 2165: uvm_test_top.env_inst.agent_inst.seqr_inst@@multiple_outstanding_address_inst [SEQ] rand_wr_addr[14] = 0x5ef334b1
UVM_INFO @ 2165: uvm_test_top.env_inst.agent_inst.seqr_inst@@multiple_outstanding_address_inst [SEQ] rand_wr_addr[15] = 0x3df0d293
UVM_INFO @ 2165: uvm_test_top.env_inst.agent_inst.seqr_inst@@multiple_outstanding_address_inst [SEQ] rand_wr_addr[16] = 0x1ed6a970
UVM_INFO @ 2165: uvm_test_top.env_inst.agent_inst.seqr_inst@@multiple_outstanding_address_inst [SEQ] AWADDR = 0x1a4b947
UVM_INFO @ 2185: uvm_test_top.env_inst.cov_model [COV_MODEL] Sampling write coverage for transaction: WSTRB=0x0, AWSIZE=0x0
UVM_INFO @ 2185: uvm_test_top.env_inst.sb [SCOREBOARD] 
WRITE Address: AWADDR=0x0	 AWID=0x0	 AWLEN=0	 AWSIZE=0	 AWBURST=0

UVM_INFO @ 2185: uvm_test_top.env_inst.sb [SCOREBOARD] 
WRITE Data:	 WDATA=0x'{'h0}	 WSTRB=0x0	 WLAST=0

UVM_INFO @ 2185: uvm_test_top.env_inst.sb [SCOREBOARD] 
WRITE Response:	 BID=0x0	 BRESP=0x0

UVM_INFO @ 2195: uvm_test_top.env_inst.cov_model [COV_MODEL] Sampling read coverage for transaction: ARSIZE=0x0
UVM_INFO @ 2195: uvm_test_top.env_inst.sb [SCOREBOARD] 
READ Address: ARADDR=0x0	 ARID=0x0	 ARLEN=0	 ARSIZE=0	 ARBURST=0

UVM_INFO @ 2195: uvm_test_top.env_inst.sb [SCOREBOARD] 
READ Data: RDATA=0x0	 RRESP=0x0	 RLAST=0x0

UVM_INFO @ 2225: uvm_test_top.env_inst.cov_model [COV_MODEL] Sampling write coverage for transaction: WSTRB=0xb, AWSIZE=0x1
ncsim: *E,EILLVS: (File: ../UVME/env/axi_cov_model.sv, Line: 29):(Time: 2225 NS + 1) Sampled value (10) for coverpoint (worklib.test_pkg::axi_cov_model::axi_write_cg@3068_2.AWID) is an illegal value.
UVM_INFO @ 2225: uvm_test_top.env_inst.sb [SCOREBOARD] 
WRITE Address: AWADDR=0xe65b0218	 AWID=0xa	 AWLEN=5	 AWSIZE=1	 AWBURST=1

UVM_INFO @ 2225: uvm_test_top.env_inst.sb [SCOREBOARD] 
WRITE Data:	 WDATA=0x'{'h1c5eea9f}	 WSTRB=0xb	 WLAST=0

UVM_INFO @ 2225: uvm_test_top.env_inst.sb [SCOREBOARD] 
WRITE Response:	 BID=0xa	 BRESP=0x0

UVM_INFO @ 2235: uvm_test_top.env_inst.cov_model [COV_MODEL] Sampling read coverage for transaction: ARSIZE=0x0
UVM_INFO @ 2235: uvm_test_top.env_inst.sb [SCOREBOARD] 
READ Address: ARADDR=0x0	 ARID=0x0	 ARLEN=0	 ARSIZE=0	 ARBURST=0

UVM_INFO @ 2235: uvm_test_top.env_inst.sb [SCOREBOARD] 
READ Data: RDATA=0x0	 RRESP=0x0	 RLAST=0x0

UVM_INFO @ 2265: uvm_test_top.env_inst.cov_model [COV_MODEL] Sampling write coverage for transaction: WSTRB=0xb, AWSIZE=0x0
UVM_INFO @ 2265: uvm_test_top.env_inst.sb [SCOREBOARD] 
WRITE Address: AWADDR=0x0	 AWID=0x0	 AWLEN=0	 AWSIZE=0	 AWBURST=0

UVM_INFO @ 2265: uvm_test_top.env_inst.sb [SCOREBOARD] 
WRITE Data:	 WDATA=0x'{'h41f8031}	 WSTRB=0xb	 WLAST=0

UVM_INFO @ 2265: uvm_test_top.env_inst.sb [SCOREBOARD] 
WRITE Response:	 BID=0xa	 BRESP=0x0

UVM_INFO @ 2275: uvm_test_top.env_inst.cov_model [COV_MODEL] Sampling read coverage for transaction: ARSIZE=0x0
UVM_INFO @ 2275: uvm_test_top.env_inst.sb [SCOREBOARD] 
READ Address: ARADDR=0x0	 ARID=0x0	 ARLEN=0	 ARSIZE=0	 ARBURST=0

UVM_INFO @ 2275: uvm_test_top.env_inst.sb [SCOREBOARD] 
READ Data: RDATA=0x0	 RRESP=0x0	 RLAST=0x0

UVM_INFO @ 2285: uvm_test_top.env_inst.agent_inst.seqr_inst@@multiple_outstanding_address_inst [SEQ] Running scenario = 27
UVM_INFO @ 2285: uvm_test_top.env_inst.agent_inst.seqr_inst@@multiple_outstanding_address_inst [SEQ] Randomized AWADDR = 0x'{'hf553f0f1, 'hb99e7124, 'h7fd12a51, 'h47ec1c79, 'h11ef479a, 'hdddaabb7, 'habae48cd, 'h7b6a1edd, 'h4d0e2de8, 'h209a75ed, 'hf60ef6ed, 'hcd6bb0e6, 'ha6b0a3da, 'h81ddcfc8, 'h5ef334b1, 'h3df0d293, 'h1ed6a970, 'h1a4b947, 'he65b0218}
UVM_INFO @ 2285: uvm_test_top.env_inst.agent_inst.seqr_inst@@multiple_outstanding_address_inst [i] i value = 18
UVM_INFO @ 2285: uvm_test_top.env_inst.agent_inst.seqr_inst@@multiple_outstanding_address_inst [SEQ] rand_wr_addr[0] = 0xf553f0f1
UVM_INFO @ 2285: uvm_test_top.env_inst.agent_inst.seqr_inst@@multiple_outstanding_address_inst [SEQ] rand_wr_addr[1] = 0xb99e7124
UVM_INFO @ 2285: uvm_test_top.env_inst.agent_inst.seqr_inst@@multiple_outstanding_address_inst [SEQ] rand_wr_addr[2] = 0x7fd12a51
UVM_INFO @ 2285: uvm_test_top.env_inst.agent_inst.seqr_inst@@multiple_outstanding_address_inst [SEQ] rand_wr_addr[3] = 0x47ec1c79
UVM_INFO @ 2285: uvm_test_top.env_inst.agent_inst.seqr_inst@@multiple_outstanding_address_inst [SEQ] rand_wr_addr[4] = 0x11ef479a
UVM_INFO @ 2285: uvm_test_top.env_inst.agent_inst.seqr_inst@@multiple_outstanding_address_inst [SEQ] rand_wr_addr[5] = 0xdddaabb7
UVM_INFO @ 2285: uvm_test_top.env_inst.agent_inst.seqr_inst@@multiple_outstanding_address_inst [SEQ] rand_wr_addr[6] = 0xabae48cd
UVM_INFO @ 2285: uvm_test_top.env_inst.agent_inst.seqr_inst@@multiple_outstanding_address_inst [SEQ] rand_wr_addr[7] = 0x7b6a1edd
UVM_INFO @ 2285: uvm_test_top.env_inst.agent_inst.seqr_inst@@multiple_outstanding_address_inst [SEQ] rand_wr_addr[8] = 0x4d0e2de8
UVM_INFO @ 2285: uvm_test_top.env_inst.agent_inst.seqr_inst@@multiple_outstanding_address_inst [SEQ] rand_wr_addr[9] = 0x209a75ed
UVM_INFO @ 2285: uvm_test_top.env_inst.agent_inst.seqr_inst@@multiple_outstanding_address_inst [SEQ] rand_wr_addr[10] = 0xf60ef6ed
UVM_INFO @ 2285: uvm_test_top.env_inst.agent_inst.seqr_inst@@multiple_outstanding_address_inst [SEQ] rand_wr_addr[11] = 0xcd6bb0e6
UVM_INFO @ 2285: uvm_test_top.env_inst.agent_inst.seqr_inst@@multiple_outstanding_address_inst [SEQ] rand_wr_addr[12] = 0xa6b0a3da
UVM_INFO @ 2285: uvm_test_top.env_inst.agent_inst.seqr_inst@@multiple_outstanding_address_inst [SEQ] rand_wr_addr[13] = 0x81ddcfc8
UVM_INFO @ 2285: uvm_test_top.env_inst.agent_inst.seqr_inst@@multiple_outstanding_address_inst [SEQ] rand_wr_addr[14] = 0x5ef334b1
UVM_INFO @ 2285: uvm_test_top.env_inst.agent_inst.seqr_inst@@multiple_outstanding_address_inst [SEQ] rand_wr_addr[15] = 0x3df0d293
UVM_INFO @ 2285: uvm_test_top.env_inst.agent_inst.seqr_inst@@multiple_outstanding_address_inst [SEQ] rand_wr_addr[16] = 0x1ed6a970
UVM_INFO @ 2285: uvm_test_top.env_inst.agent_inst.seqr_inst@@multiple_outstanding_address_inst [SEQ] rand_wr_addr[17] = 0x1a4b947
UVM_INFO @ 2285: uvm_test_top.env_inst.agent_inst.seqr_inst@@multiple_outstanding_address_inst [SEQ] AWADDR = 0xe65b0218
UVM_INFO @ 2305: uvm_test_top.env_inst.cov_model [COV_MODEL] Sampling write coverage for transaction: WSTRB=0x0, AWSIZE=0x0
UVM_INFO @ 2305: uvm_test_top.env_inst.sb [SCOREBOARD] 
WRITE Address: AWADDR=0x0	 AWID=0x0	 AWLEN=0	 AWSIZE=0	 AWBURST=0

UVM_INFO @ 2305: uvm_test_top.env_inst.sb [SCOREBOARD] 
WRITE Data:	 WDATA=0x'{'h0}	 WSTRB=0x0	 WLAST=0

UVM_INFO @ 2305: uvm_test_top.env_inst.sb [SCOREBOARD] 
WRITE Response:	 BID=0x0	 BRESP=0x0

UVM_INFO @ 2315: uvm_test_top.env_inst.cov_model [COV_MODEL] Sampling read coverage for transaction: ARSIZE=0x0
UVM_INFO @ 2315: uvm_test_top.env_inst.sb [SCOREBOARD] 
READ Address: ARADDR=0x0	 ARID=0x0	 ARLEN=0	 ARSIZE=0	 ARBURST=0

UVM_INFO @ 2315: uvm_test_top.env_inst.sb [SCOREBOARD] 
READ Data: RDATA=0x0	 RRESP=0x0	 RLAST=0x0

UVM_INFO @ 2345: uvm_test_top.env_inst.cov_model [COV_MODEL] Sampling write coverage for transaction: WSTRB=0x1, AWSIZE=0x1
ncsim: *E,EILLVS: (File: ../UVME/env/axi_cov_model.sv, Line: 29):(Time: 2345 NS + 1) Sampled value (13) for coverpoint (worklib.test_pkg::axi_cov_model::axi_write_cg@3068_2.AWID) is an illegal value.
UVM_INFO @ 2345: uvm_test_top.env_inst.sb [SCOREBOARD] 
WRITE Address: AWADDR=0xccf983e4	 AWID=0xd	 AWLEN=5	 AWSIZE=1	 AWBURST=1

UVM_INFO @ 2345: uvm_test_top.env_inst.sb [SCOREBOARD] 
WRITE Data:	 WDATA=0x'{'h229e35e1}	 WSTRB=0x1	 WLAST=0

UVM_INFO @ 2345: uvm_test_top.env_inst.sb [SCOREBOARD] 
WRITE Response:	 BID=0xd	 BRESP=0x0

UVM_INFO @ 2355: uvm_test_top.env_inst.cov_model [COV_MODEL] Sampling read coverage for transaction: ARSIZE=0x0
UVM_INFO @ 2355: uvm_test_top.env_inst.sb [SCOREBOARD] 
READ Address: ARADDR=0x0	 ARID=0x0	 ARLEN=0	 ARSIZE=0	 ARBURST=0

UVM_INFO @ 2355: uvm_test_top.env_inst.sb [SCOREBOARD] 
READ Data: RDATA=0x0	 RRESP=0x0	 RLAST=0x0

UVM_INFO @ 2385: uvm_test_top.env_inst.cov_model [COV_MODEL] Sampling write coverage for transaction: WSTRB=0x1, AWSIZE=0x0
UVM_INFO @ 2385: uvm_test_top.env_inst.sb [SCOREBOARD] 
WRITE Address: AWADDR=0x0	 AWID=0x0	 AWLEN=0	 AWSIZE=0	 AWBURST=0

UVM_INFO @ 2385: uvm_test_top.env_inst.sb [SCOREBOARD] 
WRITE Data:	 WDATA=0x'{'h5fa9be46}	 WSTRB=0x1	 WLAST=0

UVM_INFO @ 2385: uvm_test_top.env_inst.sb [SCOREBOARD] 
WRITE Response:	 BID=0xd	 BRESP=0x0

UVM_INFO @ 2395: uvm_test_top.env_inst.cov_model [COV_MODEL] Sampling read coverage for transaction: ARSIZE=0x0
UVM_INFO @ 2395: uvm_test_top.env_inst.sb [SCOREBOARD] 
READ Address: ARADDR=0x0	 ARID=0x0	 ARLEN=0	 ARSIZE=0	 ARBURST=0

UVM_INFO @ 2395: uvm_test_top.env_inst.sb [SCOREBOARD] 
READ Data: RDATA=0x0	 RRESP=0x0	 RLAST=0x0

UVM_INFO @ 2405: uvm_test_top.env_inst.agent_inst.seqr_inst@@multiple_outstanding_address_inst [SEQ] Running scenario = 27
UVM_INFO @ 2405: uvm_test_top.env_inst.agent_inst.seqr_inst@@multiple_outstanding_address_inst [SEQ] Randomized AWADDR = 0x'{'hf553f0f1, 'hb99e7124, 'h7fd12a51, 'h47ec1c79, 'h11ef479a, 'hdddaabb7, 'habae48cd, 'h7b6a1edd, 'h4d0e2de8, 'h209a75ed, 'hf60ef6ed, 'hcd6bb0e6, 'ha6b0a3da, 'h81ddcfc8, 'h5ef334b1, 'h3df0d293, 'h1ed6a970, 'h1a4b947, 'he65b0218, 'hccf983e4}
UVM_INFO @ 2405: uvm_test_top.env_inst.agent_inst.seqr_inst@@multiple_outstanding_address_inst [i] i value = 19
UVM_INFO @ 2405: uvm_test_top.env_inst.agent_inst.seqr_inst@@multiple_outstanding_address_inst [SEQ] rand_wr_addr[0] = 0xf553f0f1
UVM_INFO @ 2405: uvm_test_top.env_inst.agent_inst.seqr_inst@@multiple_outstanding_address_inst [SEQ] rand_wr_addr[1] = 0xb99e7124
UVM_INFO @ 2405: uvm_test_top.env_inst.agent_inst.seqr_inst@@multiple_outstanding_address_inst [SEQ] rand_wr_addr[2] = 0x7fd12a51
UVM_INFO @ 2405: uvm_test_top.env_inst.agent_inst.seqr_inst@@multiple_outstanding_address_inst [SEQ] rand_wr_addr[3] = 0x47ec1c79
UVM_INFO @ 2405: uvm_test_top.env_inst.agent_inst.seqr_inst@@multiple_outstanding_address_inst [SEQ] rand_wr_addr[4] = 0x11ef479a
UVM_INFO @ 2405: uvm_test_top.env_inst.agent_inst.seqr_inst@@multiple_outstanding_address_inst [SEQ] rand_wr_addr[5] = 0xdddaabb7
UVM_INFO @ 2405: uvm_test_top.env_inst.agent_inst.seqr_inst@@multiple_outstanding_address_inst [SEQ] rand_wr_addr[6] = 0xabae48cd
UVM_INFO @ 2405: uvm_test_top.env_inst.agent_inst.seqr_inst@@multiple_outstanding_address_inst [SEQ] rand_wr_addr[7] = 0x7b6a1edd
UVM_INFO @ 2405: uvm_test_top.env_inst.agent_inst.seqr_inst@@multiple_outstanding_address_inst [SEQ] rand_wr_addr[8] = 0x4d0e2de8
UVM_INFO @ 2405: uvm_test_top.env_inst.agent_inst.seqr_inst@@multiple_outstanding_address_inst [SEQ] rand_wr_addr[9] = 0x209a75ed
UVM_INFO @ 2405: uvm_test_top.env_inst.agent_inst.seqr_inst@@multiple_outstanding_address_inst [SEQ] rand_wr_addr[10] = 0xf60ef6ed
UVM_INFO @ 2405: uvm_test_top.env_inst.agent_inst.seqr_inst@@multiple_outstanding_address_inst [SEQ] rand_wr_addr[11] = 0xcd6bb0e6
UVM_INFO @ 2405: uvm_test_top.env_inst.agent_inst.seqr_inst@@multiple_outstanding_address_inst [SEQ] rand_wr_addr[12] = 0xa6b0a3da
UVM_INFO @ 2405: uvm_test_top.env_inst.agent_inst.seqr_inst@@multiple_outstanding_address_inst [SEQ] rand_wr_addr[13] = 0x81ddcfc8
UVM_INFO @ 2405: uvm_test_top.env_inst.agent_inst.seqr_inst@@multiple_outstanding_address_inst [SEQ] rand_wr_addr[14] = 0x5ef334b1
UVM_INFO @ 2405: uvm_test_top.env_inst.agent_inst.seqr_inst@@multiple_outstanding_address_inst [SEQ] rand_wr_addr[15] = 0x3df0d293
UVM_INFO @ 2405: uvm_test_top.env_inst.agent_inst.seqr_inst@@multiple_outstanding_address_inst [SEQ] rand_wr_addr[16] = 0x1ed6a970
UVM_INFO @ 2405: uvm_test_top.env_inst.agent_inst.seqr_inst@@multiple_outstanding_address_inst [SEQ] rand_wr_addr[17] = 0x1a4b947
UVM_INFO @ 2405: uvm_test_top.env_inst.agent_inst.seqr_inst@@multiple_outstanding_address_inst [SEQ] rand_wr_addr[18] = 0xe65b0218
UVM_INFO @ 2405: uvm_test_top.env_inst.agent_inst.seqr_inst@@multiple_outstanding_address_inst [SEQ] AWADDR = 0xccf983e4
UVM_INFO @ 2425: uvm_test_top.env_inst.cov_model [COV_MODEL] Sampling write coverage for transaction: WSTRB=0x0, AWSIZE=0x0
UVM_INFO @ 2425: uvm_test_top.env_inst.sb [SCOREBOARD] 
WRITE Address: AWADDR=0x0	 AWID=0x0	 AWLEN=0	 AWSIZE=0	 AWBURST=0

UVM_INFO @ 2425: uvm_test_top.env_inst.sb [SCOREBOARD] 
WRITE Data:	 WDATA=0x'{'h0}	 WSTRB=0x0	 WLAST=0

UVM_INFO @ 2425: uvm_test_top.env_inst.sb [SCOREBOARD] 
WRITE Response:	 BID=0x0	 BRESP=0x0

UVM_INFO @ 2435: uvm_test_top.env_inst.cov_model [COV_MODEL] Sampling read coverage for transaction: ARSIZE=0x0
UVM_INFO @ 2435: uvm_test_top.env_inst.sb [SCOREBOARD] 
READ Address: ARADDR=0x0	 ARID=0x0	 ARLEN=0	 ARSIZE=0	 ARBURST=0

UVM_INFO @ 2435: uvm_test_top.env_inst.sb [SCOREBOARD] 
READ Data: RDATA=0x0	 RRESP=0x0	 RLAST=0x0

UVM_INFO @ 2465: uvm_test_top.env_inst.cov_model [COV_MODEL] Sampling write coverage for transaction: WSTRB=0xb, AWSIZE=0x7
ncsim: *E,EILLVS: (File: ../UVME/env/axi_cov_model.sv, Line: 54):(Time: 2465 NS + 1) Sampled value (7) for coverpoint (worklib.test_pkg::axi_cov_model::axi_write_cg@3068_2.AWSIZE) is an illegal value.
UVM_INFO @ 2465: uvm_test_top.env_inst.sb [SCOREBOARD] 
WRITE Address: AWADDR=0xb5803eaa	 AWID=0x2	 AWLEN=5	 AWSIZE=7	 AWBURST=1

UVM_INFO @ 2465: uvm_test_top.env_inst.sb [SCOREBOARD] 
WRITE Data:	 WDATA=0x'{'hca5be3ac}	 WSTRB=0xb	 WLAST=0

UVM_INFO @ 2465: uvm_test_top.env_inst.sb [SCOREBOARD] 
WRITE Response:	 BID=0x2	 BRESP=0x0

UVM_INFO @ 2475: uvm_test_top.env_inst.cov_model [COV_MODEL] Sampling read coverage for transaction: ARSIZE=0x0
UVM_INFO @ 2475: uvm_test_top.env_inst.sb [SCOREBOARD] 
READ Address: ARADDR=0x0	 ARID=0x0	 ARLEN=0	 ARSIZE=0	 ARBURST=0

UVM_INFO @ 2475: uvm_test_top.env_inst.sb [SCOREBOARD] 
READ Data: RDATA=0x0	 RRESP=0x0	 RLAST=0x0

UVM_INFO @ 2505: uvm_test_top.env_inst.cov_model [COV_MODEL] Sampling write coverage for transaction: WSTRB=0xb, AWSIZE=0x0
UVM_INFO @ 2505: uvm_test_top.env_inst.sb [SCOREBOARD] 
WRITE Address: AWADDR=0x0	 AWID=0x0	 AWLEN=0	 AWSIZE=0	 AWBURST=0

UVM_INFO @ 2505: uvm_test_top.env_inst.sb [SCOREBOARD] 
WRITE Data:	 WDATA=0x'{'h60e8a3c5}	 WSTRB=0xb	 WLAST=0

UVM_INFO @ 2505: uvm_test_top.env_inst.sb [SCOREBOARD] 
WRITE Response:	 BID=0x2	 BRESP=0x0

UVM_INFO @ 2515: uvm_test_top.env_inst.cov_model [COV_MODEL] Sampling read coverage for transaction: ARSIZE=0x0
UVM_INFO @ 2515: uvm_test_top.env_inst.sb [SCOREBOARD] 
READ Address: ARADDR=0x0	 ARID=0x0	 ARLEN=0	 ARSIZE=0	 ARBURST=0

UVM_INFO @ 2515: uvm_test_top.env_inst.sb [SCOREBOARD] 
READ Data: RDATA=0x0	 RRESP=0x0	 RLAST=0x0

UVM_INFO @ 2525: uvm_test_top.env_inst.agent_inst.seqr_inst@@multiple_outstanding_address_inst [SEQ] Running scenario = 27
UVM_INFO @ 2525: uvm_test_top.env_inst.agent_inst.seqr_inst@@multiple_outstanding_address_inst [SEQ] Randomized AWADDR = 0x'{'hf553f0f1, 'hb99e7124, 'h7fd12a51, 'h47ec1c79, 'h11ef479a, 'hdddaabb7, 'habae48cd, 'h7b6a1edd, 'h4d0e2de8, 'h209a75ed, 'hf60ef6ed, 'hcd6bb0e6, 'ha6b0a3da, 'h81ddcfc8, 'h5ef334b1, 'h3df0d293, 'h1ed6a970, 'h1a4b947, 'he65b0218, 'hccf983e4, 'hb5803eaa}
UVM_INFO @ 2525: uvm_test_top.env_inst.agent_inst.seqr_inst@@multiple_outstanding_address_inst [i] i value = 20
UVM_INFO @ 2525: uvm_test_top.env_inst.agent_inst.seqr_inst@@multiple_outstanding_address_inst [SEQ] rand_wr_addr[0] = 0xf553f0f1
UVM_INFO @ 2525: uvm_test_top.env_inst.agent_inst.seqr_inst@@multiple_outstanding_address_inst [SEQ] rand_wr_addr[1] = 0xb99e7124
UVM_INFO @ 2525: uvm_test_top.env_inst.agent_inst.seqr_inst@@multiple_outstanding_address_inst [SEQ] rand_wr_addr[2] = 0x7fd12a51
UVM_INFO @ 2525: uvm_test_top.env_inst.agent_inst.seqr_inst@@multiple_outstanding_address_inst [SEQ] rand_wr_addr[3] = 0x47ec1c79
UVM_INFO @ 2525: uvm_test_top.env_inst.agent_inst.seqr_inst@@multiple_outstanding_address_inst [SEQ] rand_wr_addr[4] = 0x11ef479a
UVM_INFO @ 2525: uvm_test_top.env_inst.agent_inst.seqr_inst@@multiple_outstanding_address_inst [SEQ] rand_wr_addr[5] = 0xdddaabb7
UVM_INFO @ 2525: uvm_test_top.env_inst.agent_inst.seqr_inst@@multiple_outstanding_address_inst [SEQ] rand_wr_addr[6] = 0xabae48cd
UVM_INFO @ 2525: uvm_test_top.env_inst.agent_inst.seqr_inst@@multiple_outstanding_address_inst [SEQ] rand_wr_addr[7] = 0x7b6a1edd
UVM_INFO @ 2525: uvm_test_top.env_inst.agent_inst.seqr_inst@@multiple_outstanding_address_inst [SEQ] rand_wr_addr[8] = 0x4d0e2de8
UVM_INFO @ 2525: uvm_test_top.env_inst.agent_inst.seqr_inst@@multiple_outstanding_address_inst [SEQ] rand_wr_addr[9] = 0x209a75ed
UVM_INFO @ 2525: uvm_test_top.env_inst.agent_inst.seqr_inst@@multiple_outstanding_address_inst [SEQ] rand_wr_addr[10] = 0xf60ef6ed
UVM_INFO @ 2525: uvm_test_top.env_inst.agent_inst.seqr_inst@@multiple_outstanding_address_inst [SEQ] rand_wr_addr[11] = 0xcd6bb0e6
UVM_INFO @ 2525: uvm_test_top.env_inst.agent_inst.seqr_inst@@multiple_outstanding_address_inst [SEQ] rand_wr_addr[12] = 0xa6b0a3da
UVM_INFO @ 2525: uvm_test_top.env_inst.agent_inst.seqr_inst@@multiple_outstanding_address_inst [SEQ] rand_wr_addr[13] = 0x81ddcfc8
UVM_INFO @ 2525: uvm_test_top.env_inst.agent_inst.seqr_inst@@multiple_outstanding_address_inst [SEQ] rand_wr_addr[14] = 0x5ef334b1
UVM_INFO @ 2525: uvm_test_top.env_inst.agent_inst.seqr_inst@@multiple_outstanding_address_inst [SEQ] rand_wr_addr[15] = 0x3df0d293
UVM_INFO @ 2525: uvm_test_top.env_inst.agent_inst.seqr_inst@@multiple_outstanding_address_inst [SEQ] rand_wr_addr[16] = 0x1ed6a970
UVM_INFO @ 2525: uvm_test_top.env_inst.agent_inst.seqr_inst@@multiple_outstanding_address_inst [SEQ] rand_wr_addr[17] = 0x1a4b947
UVM_INFO @ 2525: uvm_test_top.env_inst.agent_inst.seqr_inst@@multiple_outstanding_address_inst [SEQ] rand_wr_addr[18] = 0xe65b0218
UVM_INFO @ 2525: uvm_test_top.env_inst.agent_inst.seqr_inst@@multiple_outstanding_address_inst [SEQ] rand_wr_addr[19] = 0xccf983e4
UVM_INFO @ 2525: uvm_test_top.env_inst.agent_inst.seqr_inst@@multiple_outstanding_address_inst [SEQ] AWADDR = 0xb5803eaa
UVM_INFO @ 2545: uvm_test_top.env_inst.cov_model [COV_MODEL] Sampling write coverage for transaction: WSTRB=0x0, AWSIZE=0x0
UVM_INFO @ 2545: uvm_test_top.env_inst.sb [SCOREBOARD] 
WRITE Address: AWADDR=0x0	 AWID=0x0	 AWLEN=0	 AWSIZE=0	 AWBURST=0

UVM_INFO @ 2545: uvm_test_top.env_inst.sb [SCOREBOARD] 
WRITE Data:	 WDATA=0x'{'h0}	 WSTRB=0x0	 WLAST=0

UVM_INFO @ 2545: uvm_test_top.env_inst.sb [SCOREBOARD] 
WRITE Response:	 BID=0x0	 BRESP=0x0

