irun(64): 15.20-s051: (c) Copyright 1995-2018 Cadence Design Systems, Inc.
TOOL:	irun(64)	15.20-s051: Started on Mar 01, 2019 at 19:57:33 IST
irun
	-access +rwc
	-f compile_list.f
		./../../axi_top_rtl/AXI4_SLAVE_WITH_TOP/1.AXI4_Slave_Write_Address.sv
		./../../axi_top_rtl/AXI4_SLAVE_WITH_TOP/2.AXI4_Slave_Write_Data.sv
		./../../axi_top_rtl/AXI4_SLAVE_WITH_TOP/3.AXI4_Slave_Write_Response.sv
		./../../axi_top_rtl/AXI4_SLAVE_WITH_TOP/4.AXI4_Slave_Read_Address.sv
		./../../axi_top_rtl/AXI4_SLAVE_WITH_TOP/5.AXI4_Slave_Read_Data.sv
		./../../axi_top_rtl/AXI4_SLAVE_WITH_TOP/axi4_Slave_top.sv
		./../UVME/uvm_pkg/test_pkg.sv
		./../UVME/top/axi_top.sv
		./../UVME/top/axi_interface.sv
	-svseed 99625
	+UVM_TESTNAME=axi_multiple_outstanding_address_test
	+define+UVM_REPORT_DISABLE_FILE_LINE
	-coverage all
	-covdut axi4_slave_top
	-covworkdir /cov_work
	-covoverwrite
	-covfile ./cov_files/cov_cmd.cf
	-uvmhome CDNS-1.1d
ncsim: *E,CNDIR: Could not create/open directory /cov_work.
Loading snapshot worklib.axi_top:sv .................... Done
SVSEED set from command line: 99625
ncsim: *W,DSEM2009: This SystemVerilog design is simulated as per IEEE 1800-2009 SystemVerilog simulation semantics. Use -disable_sem2009 option for turning off SV 2009 simulation semantics.
ncsim> source /tools/cadence/INCISIVE152/tools/inca/files/ncsimrc
ncsim> source /tools/cadence/INCISIVE152/tools/methodology/UVM/CDNS-1.1d/additions/sv/files/tcl/uvm_sim.tcl
ncsim> run
----------------------------------------------------------------
CDNS-UVM-1.1d (15.20-s051)
(C) 2007-2013 Mentor Graphics Corporation
(C) 2007-2013 Cadence Design Systems, Inc.
(C) 2006-2013 Synopsys, Inc.
(C) 2011-2013 Cypress Semiconductor Corp.
----------------------------------------------------------------

  ***********       IMPORTANT RELEASE NOTES         ************

  You are using a version of the UVM library that has been compiled
  with `UVM_NO_DEPRECATED undefined.
  See http://www.eda.org/svdb/view.php?id=3313 for more details.

  You are using a version of the UVM library that has been compiled
  with `UVM_OBJECT_MUST_HAVE_CONSTRUCTOR undefined.
  See http://www.eda.org/svdb/view.php?id=3770 for more details.

      (Specify +UVM_NO_RELNOTES to turn off this notice)

UVM_INFO @ 0: uvm_test_top [axi_multiple_outstanding_address_test] Inside Constuctor!
UVM_INFO @ 0: reporter [RNTST] Running test axi_multiple_outstanding_address_test...
UVM_INFO @ 0: uvm_test_top.env_inst [ENV_CLASS] Inside constructor!
UVM_INFO @ 0: uvm_test_top [axi_multiple_outstanding_address_test] Inside Build Phase!
UVM_INFO @ 0: uvm_test_top.env_inst.agent_inst [agent_class] Inside constructor!
ncsim: *W,OBINRGT: (File: ../UVME/env/axi_cov_model.sv, Line : 54): Some of the values in bin range '[8 : $]' of bin 'worklib.test_pkg::axi_cov_model::axi_write_cg.AWSIZE.invalid' are not within the possible values that coverpoint can store. Range will be modified to '[7 : $]'.
ncsim: *W,OBINRGT: (File: ../UVME/env/axi_cov_model.sv, Line : 156): Some of the values in bin range '[8 : $]' of bin 'worklib.test_pkg::axi_cov_model::axi_read_cg.ARSIZE.invalid' are not within the possible values that coverpoint can store. Range will be modified to '[7 : $]'.
UVM_INFO @ 0: uvm_test_top.env_inst [ENV_CLASS] Inside Build Phase!
UVM_INFO @ 0: uvm_test_top.env_inst.agent_inst.driver_inst [Driver_class] Inside Constructor!
UVM_INFO @ 0: uvm_test_top.env_inst.agent_inst.seqr_inst [Sequencer_class] Inside Constructor!
UVM_INFO @ 0: uvm_test_top.env_inst.agent_inst [agent_class] Inside Build Phase!
UVM_INFO @ 0: uvm_test_top.env_inst.agent_inst.driver_inst [Driver_class] Inside Build Phase!
UVM_INFO @ 0: uvm_test_top.env_inst.cov_model [COV_MODEL] Build phase executed
UVM_INFO @ 0: uvm_test_top.env_inst.agent_inst [agent_class] Inside Connect Phase!
UVM_INFO @ 0: uvm_test_top.env_inst [ENV_CLASS] Inside connect Phase! All connections established
UVM_INFO @ 0: reporter [UVMTOP] UVM testbench topology:
-----------------------------------------------------------------------------
Name                       Type                                   Size  Value
-----------------------------------------------------------------------------
uvm_test_top               axi_multiple_outstanding_address_test  -     @2784
  env_inst                 axi_env                                -     @2871
    agent_inst             axi_agent                              -     @2953
      driver_inst          axi_driver                             -     @3075
        rsp_port           uvm_analysis_port                      -     @3175
        seq_item_port      uvm_seq_item_pull_port                 -     @3124
      mon_inst             axi_monitor                            -     @3207
        handshake_port     uvm_analysis_port                      -     @3355
        rd_analysis_port   uvm_analysis_port                      -     @3306
        wr_analysis_port   uvm_analysis_port                      -     @3257
      seqr_inst            axi_seqr                               -     @3335
        rsp_export         uvm_analysis_export                    -     @3443
        seq_item_export    uvm_seq_item_pull_imp                  -     @3991
        arbitration_queue  array                                  0     -    
        lock_queue         array                                  0     -    
        num_last_reqs      integral                               32    'd1  
        num_last_rsps      integral                               32    'd1  
    cov_model              axi_cov_model                          -     @2985
      analysis_imp         uvm_analysis_imp                       -     @3036
    sb                     axi_scoreboard                         -     @2919
      rd_analysis_port     uvm_analysis_port                      -     @4243
      rd_export            uvm_analysis_imp_rd                    -     @4145
      wr_analysis_port     uvm_analysis_port                      -     @4194
      wr_export            uvm_analysis_imp_wr                    -     @4096
-----------------------------------------------------------------------------

UVM_INFO @ 0: uvm_test_top [uvm_test_top] it test increment_burst first line
UVM_INFO @ 0: uvm_test_top [axi_multiple_outstanding_address_test] inside the increment_burst test
UVM_INFO @ 0: uvm_test_top.env_inst.agent_inst.seqr_inst@@multiple_outstanding_address_inst [axi_multiple_outstanding_address_seq] multiple_outstanding_address_seq: inside body
UVM_INFO @ 5: uvm_test_top [axi_multiple_outstanding_address_test] increment_burst scenario 26 is competed
UVM_INFO @ 5: uvm_test_top.env_inst.agent_inst.seqr_inst@@multiple_outstanding_address_inst [axi_multiple_outstanding_address_seq] multiple_outstanding_address_seq: inside body
UVM_INFO @ 15: uvm_test_top.env_inst.cov_model [COV_MODEL] Sampling write coverage for transaction: WSTRB=0xx, AWSIZE=0xx
UVM_INFO @ 15: uvm_test_top.env_inst.sb [SCOREBOARD] 
WRITE Address: AWADDR=0xx	 AWID=0xx	 AWLEN=x	 AWSIZE=x	 AWBURST=x

UVM_INFO @ 15: uvm_test_top.env_inst.sb [SCOREBOARD] 
WRITE Data:	 WDATA=0x'{}	 WSTRB=0xx	 WLAST=x

UVM_INFO @ 15: uvm_test_top.env_inst.sb [SCOREBOARD] 
WRITE Response:	 BID=0x0	 BRESP=0x0

UVM_INFO @ 25: uvm_test_top.env_inst.cov_model [COV_MODEL] Sampling read coverage for transaction: ARSIZE=0x0
UVM_INFO @ 25: uvm_test_top.env_inst.sb [SCOREBOARD] 
READ Address: ARADDR=0x0	 ARID=0x0	 ARLEN=0	 ARSIZE=0	 ARBURST=0

UVM_INFO @ 25: uvm_test_top.env_inst.sb [SCOREBOARD] 
READ Data: RDATA=0x0	 RRESP=0x0	 RLAST=0x0

UVM_INFO @ 65: uvm_test_top.env_inst.cov_model [COV_MODEL] Sampling write coverage for transaction: WSTRB=0x7, AWSIZE=0x2
ncsim: *E,EILLVS: (File: ../UVME/env/axi_cov_model.sv, Line: 29):(Time: 65 NS + 1) Sampled value (7) for coverpoint (worklib.test_pkg::axi_cov_model::axi_write_cg@3068_2.AWID) is an illegal value.
UVM_INFO @ 65: uvm_test_top.env_inst.sb [SCOREBOARD] 
WRITE Address: AWADDR=0x6c2323b1	 AWID=0x7	 AWLEN=5	 AWSIZE=2	 AWBURST=1

UVM_INFO @ 65: uvm_test_top.env_inst.sb [SCOREBOARD] 
WRITE Data:	 WDATA=0x'{'hcd64e384, 'hcd64e384}	 WSTRB=0x7	 WLAST=0

UVM_INFO @ 65: uvm_test_top.env_inst.sb [SCOREBOARD] 
WRITE Response:	 BID=0x7	 BRESP=0x0

UVM_INFO @ 75: uvm_test_top.env_inst.cov_model [COV_MODEL] Sampling read coverage for transaction: ARSIZE=0x0
UVM_INFO @ 75: uvm_test_top.env_inst.sb [SCOREBOARD] 
READ Address: ARADDR=0x0	 ARID=0x0	 ARLEN=0	 ARSIZE=0	 ARBURST=0

UVM_INFO @ 75: uvm_test_top.env_inst.sb [SCOREBOARD] 
READ Data: RDATA=0x0	 RRESP=0x0	 RLAST=0x0

UVM_INFO @ 105: uvm_test_top.env_inst.cov_model [COV_MODEL] Sampling write coverage for transaction: WSTRB=0x7, AWSIZE=0x0
UVM_INFO @ 105: uvm_test_top.env_inst.sb [SCOREBOARD] 
WRITE Address: AWADDR=0x0	 AWID=0x0	 AWLEN=0	 AWSIZE=0	 AWBURST=0

UVM_INFO @ 105: uvm_test_top.env_inst.sb [SCOREBOARD] 
WRITE Data:	 WDATA=0x'{'hab920a49}	 WSTRB=0x7	 WLAST=0

UVM_INFO @ 105: uvm_test_top.env_inst.sb [SCOREBOARD] 
WRITE Response:	 BID=0x7	 BRESP=0x0

UVM_INFO @ 115: uvm_test_top.env_inst.cov_model [COV_MODEL] Sampling read coverage for transaction: ARSIZE=0x0
UVM_INFO @ 115: uvm_test_top.env_inst.sb [SCOREBOARD] 
READ Address: ARADDR=0x0	 ARID=0x0	 ARLEN=0	 ARSIZE=0	 ARBURST=0

UVM_INFO @ 115: uvm_test_top.env_inst.sb [SCOREBOARD] 
READ Data: RDATA=0x0	 RRESP=0x0	 RLAST=0x0

UVM_INFO @ 125: uvm_test_top.env_inst.agent_inst.seqr_inst@@multiple_outstanding_address_inst [SEQ] Running scenario = 27
UVM_INFO @ 125: uvm_test_top.env_inst.agent_inst.seqr_inst@@multiple_outstanding_address_inst [SEQ] Randomized AWADDR = 0x'{'h6c2323b1}
UVM_INFO @ 125: uvm_test_top.env_inst.agent_inst.seqr_inst@@multiple_outstanding_address_inst [i] i value = 0
UVM_INFO @ 125: uvm_test_top.env_inst.agent_inst.seqr_inst@@multiple_outstanding_address_inst [SEQ] AWADDR = 0x6c2323b1
UVM_INFO @ 145: uvm_test_top.env_inst.cov_model [COV_MODEL] Sampling write coverage for transaction: WSTRB=0x0, AWSIZE=0x0
UVM_INFO @ 145: uvm_test_top.env_inst.sb [SCOREBOARD] 
WRITE Address: AWADDR=0x0	 AWID=0x0	 AWLEN=0	 AWSIZE=0	 AWBURST=0

UVM_INFO @ 145: uvm_test_top.env_inst.sb [SCOREBOARD] 
WRITE Data:	 WDATA=0x'{'h0}	 WSTRB=0x0	 WLAST=0

UVM_INFO @ 145: uvm_test_top.env_inst.sb [SCOREBOARD] 
WRITE Response:	 BID=0x0	 BRESP=0x0

UVM_INFO @ 155: uvm_test_top.env_inst.cov_model [COV_MODEL] Sampling read coverage for transaction: ARSIZE=0x0
UVM_INFO @ 155: uvm_test_top.env_inst.sb [SCOREBOARD] 
READ Address: ARADDR=0x0	 ARID=0x0	 ARLEN=0	 ARSIZE=0	 ARBURST=0

UVM_INFO @ 155: uvm_test_top.env_inst.sb [SCOREBOARD] 
READ Data: RDATA=0x0	 RRESP=0x0	 RLAST=0x0

UVM_INFO @ 185: uvm_test_top.env_inst.cov_model [COV_MODEL] Sampling write coverage for transaction: WSTRB=0xe, AWSIZE=0x3
ncsim: *E,EILLVS: (File: ../UVME/env/axi_cov_model.sv, Line: 29):(Time: 185 NS + 1) Sampled value (12) for coverpoint (worklib.test_pkg::axi_cov_model::axi_write_cg@3068_2.AWID) is an illegal value.
UVM_INFO @ 185: uvm_test_top.env_inst.sb [SCOREBOARD] 
WRITE Address: AWADDR=0x306da3e4	 AWID=0xc	 AWLEN=5	 AWSIZE=3	 AWBURST=1

UVM_INFO @ 185: uvm_test_top.env_inst.sb [SCOREBOARD] 
WRITE Data:	 WDATA=0x'{'h78c14136}	 WSTRB=0xe	 WLAST=0

UVM_INFO @ 185: uvm_test_top.env_inst.sb [SCOREBOARD] 
WRITE Response:	 BID=0xc	 BRESP=0x0

UVM_INFO @ 195: uvm_test_top.env_inst.cov_model [COV_MODEL] Sampling read coverage for transaction: ARSIZE=0x0
UVM_INFO @ 195: uvm_test_top.env_inst.sb [SCOREBOARD] 
READ Address: ARADDR=0x0	 ARID=0x0	 ARLEN=0	 ARSIZE=0	 ARBURST=0

UVM_INFO @ 195: uvm_test_top.env_inst.sb [SCOREBOARD] 
READ Data: RDATA=0x0	 RRESP=0x0	 RLAST=0x0

UVM_INFO @ 225: uvm_test_top.env_inst.cov_model [COV_MODEL] Sampling write coverage for transaction: WSTRB=0xe, AWSIZE=0x0
UVM_INFO @ 225: uvm_test_top.env_inst.sb [SCOREBOARD] 
WRITE Address: AWADDR=0x0	 AWID=0x0	 AWLEN=0	 AWSIZE=0	 AWBURST=0

UVM_INFO @ 225: uvm_test_top.env_inst.sb [SCOREBOARD] 
WRITE Data:	 WDATA=0x'{'h606882f6}	 WSTRB=0xe	 WLAST=0

UVM_INFO @ 225: uvm_test_top.env_inst.sb [SCOREBOARD] 
WRITE Response:	 BID=0xc	 BRESP=0x0

UVM_INFO @ 235: uvm_test_top.env_inst.cov_model [COV_MODEL] Sampling read coverage for transaction: ARSIZE=0x0
UVM_INFO @ 235: uvm_test_top.env_inst.sb [SCOREBOARD] 
READ Address: ARADDR=0x0	 ARID=0x0	 ARLEN=0	 ARSIZE=0	 ARBURST=0

UVM_INFO @ 235: uvm_test_top.env_inst.sb [SCOREBOARD] 
READ Data: RDATA=0x0	 RRESP=0x0	 RLAST=0x0

UVM_INFO @ 245: uvm_test_top.env_inst.agent_inst.seqr_inst@@multiple_outstanding_address_inst [SEQ] Running scenario = 27
UVM_INFO @ 245: uvm_test_top.env_inst.agent_inst.seqr_inst@@multiple_outstanding_address_inst [SEQ] Randomized AWADDR = 0x'{'h6c2323b1, 'h306da3e4}
UVM_INFO @ 245: uvm_test_top.env_inst.agent_inst.seqr_inst@@multiple_outstanding_address_inst [i] i value = 1
UVM_INFO @ 245: uvm_test_top.env_inst.agent_inst.seqr_inst@@multiple_outstanding_address_inst [SEQ] rand_wr_addr[0] = 0x6c2323b1
UVM_INFO @ 245: uvm_test_top.env_inst.agent_inst.seqr_inst@@multiple_outstanding_address_inst [SEQ] AWADDR = 0x306da3e4
UVM_INFO @ 265: uvm_test_top.env_inst.cov_model [COV_MODEL] Sampling write coverage for transaction: WSTRB=0x0, AWSIZE=0x0
UVM_INFO @ 265: uvm_test_top.env_inst.sb [SCOREBOARD] 
WRITE Address: AWADDR=0x0	 AWID=0x0	 AWLEN=0	 AWSIZE=0	 AWBURST=0

UVM_INFO @ 265: uvm_test_top.env_inst.sb [SCOREBOARD] 
WRITE Data:	 WDATA=0x'{'h0}	 WSTRB=0x0	 WLAST=0

UVM_INFO @ 265: uvm_test_top.env_inst.sb [SCOREBOARD] 
WRITE Response:	 BID=0x0	 BRESP=0x0

UVM_INFO @ 275: uvm_test_top.env_inst.cov_model [COV_MODEL] Sampling read coverage for transaction: ARSIZE=0x0
UVM_INFO @ 275: uvm_test_top.env_inst.sb [SCOREBOARD] 
READ Address: ARADDR=0x0	 ARID=0x0	 ARLEN=0	 ARSIZE=0	 ARBURST=0

UVM_INFO @ 275: uvm_test_top.env_inst.sb [SCOREBOARD] 
READ Data: RDATA=0x0	 RRESP=0x0	 RLAST=0x0

UVM_INFO @ 305: uvm_test_top.env_inst.cov_model [COV_MODEL] Sampling write coverage for transaction: WSTRB=0xb, AWSIZE=0x1
ncsim: *E,EILLVS: (File: ../UVME/env/axi_cov_model.sv, Line: 29):(Time: 305 NS + 1) Sampled value (4) for coverpoint (worklib.test_pkg::axi_cov_model::axi_write_cg@3068_2.AWID) is an illegal value.
UVM_INFO @ 305: uvm_test_top.env_inst.sb [SCOREBOARD] 
WRITE Address: AWADDR=0xf6a05d11	 AWID=0x4	 AWLEN=5	 AWSIZE=1	 AWBURST=1

UVM_INFO @ 305: uvm_test_top.env_inst.sb [SCOREBOARD] 
WRITE Data:	 WDATA=0x'{'hc59c0170}	 WSTRB=0xb	 WLAST=0

UVM_INFO @ 305: uvm_test_top.env_inst.sb [SCOREBOARD] 
WRITE Response:	 BID=0x4	 BRESP=0x0

UVM_INFO @ 315: uvm_test_top.env_inst.cov_model [COV_MODEL] Sampling read coverage for transaction: ARSIZE=0x0
UVM_INFO @ 315: uvm_test_top.env_inst.sb [SCOREBOARD] 
READ Address: ARADDR=0x0	 ARID=0x0	 ARLEN=0	 ARSIZE=0	 ARBURST=0

UVM_INFO @ 315: uvm_test_top.env_inst.sb [SCOREBOARD] 
READ Data: RDATA=0x0	 RRESP=0x0	 RLAST=0x0

UVM_INFO @ 345: uvm_test_top.env_inst.cov_model [COV_MODEL] Sampling write coverage for transaction: WSTRB=0xb, AWSIZE=0x0
UVM_INFO @ 345: uvm_test_top.env_inst.sb [SCOREBOARD] 
WRITE Address: AWADDR=0x0	 AWID=0x0	 AWLEN=0	 AWSIZE=0	 AWBURST=0

UVM_INFO @ 345: uvm_test_top.env_inst.sb [SCOREBOARD] 
WRITE Data:	 WDATA=0x'{'hbaf3a30c}	 WSTRB=0xb	 WLAST=0

UVM_INFO @ 345: uvm_test_top.env_inst.sb [SCOREBOARD] 
WRITE Response:	 BID=0x4	 BRESP=0x0

UVM_INFO @ 355: uvm_test_top.env_inst.cov_model [COV_MODEL] Sampling read coverage for transaction: ARSIZE=0x0
UVM_INFO @ 355: uvm_test_top.env_inst.sb [SCOREBOARD] 
READ Address: ARADDR=0x0	 ARID=0x0	 ARLEN=0	 ARSIZE=0	 ARBURST=0

UVM_INFO @ 355: uvm_test_top.env_inst.sb [SCOREBOARD] 
READ Data: RDATA=0x0	 RRESP=0x0	 RLAST=0x0

UVM_INFO @ 365: uvm_test_top.env_inst.agent_inst.seqr_inst@@multiple_outstanding_address_inst [SEQ] Running scenario = 27
UVM_INFO @ 365: uvm_test_top.env_inst.agent_inst.seqr_inst@@multiple_outstanding_address_inst [SEQ] Randomized AWADDR = 0x'{'h6c2323b1, 'h306da3e4, 'hf6a05d11}
UVM_INFO @ 365: uvm_test_top.env_inst.agent_inst.seqr_inst@@multiple_outstanding_address_inst [i] i value = 2
UVM_INFO @ 365: uvm_test_top.env_inst.agent_inst.seqr_inst@@multiple_outstanding_address_inst [SEQ] rand_wr_addr[0] = 0x6c2323b1
UVM_INFO @ 365: uvm_test_top.env_inst.agent_inst.seqr_inst@@multiple_outstanding_address_inst [SEQ] rand_wr_addr[1] = 0x306da3e4
UVM_INFO @ 365: uvm_test_top.env_inst.agent_inst.seqr_inst@@multiple_outstanding_address_inst [SEQ] AWADDR = 0xf6a05d11
UVM_INFO @ 385: uvm_test_top.env_inst.cov_model [COV_MODEL] Sampling write coverage for transaction: WSTRB=0x0, AWSIZE=0x0
UVM_INFO @ 385: uvm_test_top.env_inst.sb [SCOREBOARD] 
WRITE Address: AWADDR=0x0	 AWID=0x0	 AWLEN=0	 AWSIZE=0	 AWBURST=0

UVM_INFO @ 385: uvm_test_top.env_inst.sb [SCOREBOARD] 
WRITE Data:	 WDATA=0x'{'h0}	 WSTRB=0x0	 WLAST=0

UVM_INFO @ 385: uvm_test_top.env_inst.sb [SCOREBOARD] 
WRITE Response:	 BID=0x0	 BRESP=0x0

UVM_INFO @ 395: uvm_test_top.env_inst.cov_model [COV_MODEL] Sampling read coverage for transaction: ARSIZE=0x0
UVM_INFO @ 395: uvm_test_top.env_inst.sb [SCOREBOARD] 
READ Address: ARADDR=0x0	 ARID=0x0	 ARLEN=0	 ARSIZE=0	 ARBURST=0

UVM_INFO @ 395: uvm_test_top.env_inst.sb [SCOREBOARD] 
READ Data: RDATA=0x0	 RRESP=0x0	 RLAST=0x0

UVM_INFO @ 425: uvm_test_top.env_inst.cov_model [COV_MODEL] Sampling write coverage for transaction: WSTRB=0xd, AWSIZE=0x4
ncsim: *E,EILLVS: (File: ../UVME/env/axi_cov_model.sv, Line: 29):(Time: 425 NS + 1) Sampled value (15) for coverpoint (worklib.test_pkg::axi_cov_model::axi_write_cg@3068_2.AWID) is an illegal value.
UVM_INFO @ 425: uvm_test_top.env_inst.sb [SCOREBOARD] 
WRITE Address: AWADDR=0xbebb4f39	 AWID=0xf	 AWLEN=5	 AWSIZE=4	 AWBURST=1

UVM_INFO @ 425: uvm_test_top.env_inst.sb [SCOREBOARD] 
WRITE Data:	 WDATA=0x'{'hb3f52432}	 WSTRB=0xd	 WLAST=0

UVM_INFO @ 425: uvm_test_top.env_inst.sb [SCOREBOARD] 
WRITE Response:	 BID=0xf	 BRESP=0x0

UVM_INFO @ 435: uvm_test_top.env_inst.cov_model [COV_MODEL] Sampling read coverage for transaction: ARSIZE=0x0
UVM_INFO @ 435: uvm_test_top.env_inst.sb [SCOREBOARD] 
READ Address: ARADDR=0x0	 ARID=0x0	 ARLEN=0	 ARSIZE=0	 ARBURST=0

UVM_INFO @ 435: uvm_test_top.env_inst.sb [SCOREBOARD] 
READ Data: RDATA=0x0	 RRESP=0x0	 RLAST=0x0

UVM_INFO @ 465: uvm_test_top.env_inst.cov_model [COV_MODEL] Sampling write coverage for transaction: WSTRB=0xd, AWSIZE=0x0
UVM_INFO @ 465: uvm_test_top.env_inst.sb [SCOREBOARD] 
WRITE Address: AWADDR=0x0	 AWID=0x0	 AWLEN=0	 AWSIZE=0	 AWBURST=0

UVM_INFO @ 465: uvm_test_top.env_inst.sb [SCOREBOARD] 
WRITE Data:	 WDATA=0x'{'hbb336a8c}	 WSTRB=0xd	 WLAST=0

UVM_INFO @ 465: uvm_test_top.env_inst.sb [SCOREBOARD] 
WRITE Response:	 BID=0xf	 BRESP=0x0

UVM_INFO @ 475: uvm_test_top.env_inst.cov_model [COV_MODEL] Sampling read coverage for transaction: ARSIZE=0x0
UVM_INFO @ 475: uvm_test_top.env_inst.sb [SCOREBOARD] 
READ Address: ARADDR=0x0	 ARID=0x0	 ARLEN=0	 ARSIZE=0	 ARBURST=0

UVM_INFO @ 475: uvm_test_top.env_inst.sb [SCOREBOARD] 
READ Data: RDATA=0x0	 RRESP=0x0	 RLAST=0x0

UVM_INFO @ 485: uvm_test_top.env_inst.agent_inst.seqr_inst@@multiple_outstanding_address_inst [SEQ] Running scenario = 27
UVM_INFO @ 485: uvm_test_top.env_inst.agent_inst.seqr_inst@@multiple_outstanding_address_inst [SEQ] Randomized AWADDR = 0x'{'h6c2323b1, 'h306da3e4, 'hf6a05d11, 'hbebb4f39}
UVM_INFO @ 485: uvm_test_top.env_inst.agent_inst.seqr_inst@@multiple_outstanding_address_inst [i] i value = 3
UVM_INFO @ 485: uvm_test_top.env_inst.agent_inst.seqr_inst@@multiple_outstanding_address_inst [SEQ] rand_wr_addr[0] = 0x6c2323b1
UVM_INFO @ 485: uvm_test_top.env_inst.agent_inst.seqr_inst@@multiple_outstanding_address_inst [SEQ] rand_wr_addr[1] = 0x306da3e4
UVM_INFO @ 485: uvm_test_top.env_inst.agent_inst.seqr_inst@@multiple_outstanding_address_inst [SEQ] rand_wr_addr[2] = 0xf6a05d11
UVM_INFO @ 485: uvm_test_top.env_inst.agent_inst.seqr_inst@@multiple_outstanding_address_inst [SEQ] AWADDR = 0xbebb4f39
UVM_INFO @ 505: uvm_test_top.env_inst.cov_model [COV_MODEL] Sampling write coverage for transaction: WSTRB=0x0, AWSIZE=0x0
UVM_INFO @ 505: uvm_test_top.env_inst.sb [SCOREBOARD] 
WRITE Address: AWADDR=0x0	 AWID=0x0	 AWLEN=0	 AWSIZE=0	 AWBURST=0

UVM_INFO @ 505: uvm_test_top.env_inst.sb [SCOREBOARD] 
WRITE Data:	 WDATA=0x'{'h0}	 WSTRB=0x0	 WLAST=0

UVM_INFO @ 505: uvm_test_top.env_inst.sb [SCOREBOARD] 
WRITE Response:	 BID=0x0	 BRESP=0x0

UVM_INFO @ 515: uvm_test_top.env_inst.cov_model [COV_MODEL] Sampling read coverage for transaction: ARSIZE=0x0
UVM_INFO @ 515: uvm_test_top.env_inst.sb [SCOREBOARD] 
READ Address: ARADDR=0x0	 ARID=0x0	 ARLEN=0	 ARSIZE=0	 ARBURST=0

UVM_INFO @ 515: uvm_test_top.env_inst.sb [SCOREBOARD] 
READ Data: RDATA=0x0	 RRESP=0x0	 RLAST=0x0

UVM_INFO @ 545: uvm_test_top.env_inst.cov_model [COV_MODEL] Sampling write coverage for transaction: WSTRB=0x5, AWSIZE=0x3
ncsim: *E,EILLVS: (File: ../UVME/env/axi_cov_model.sv, Line: 29):(Time: 545 NS + 1) Sampled value (12) for coverpoint (worklib.test_pkg::axi_cov_model::axi_write_cg@3068_2.AWID) is an illegal value.
UVM_INFO @ 545: uvm_test_top.env_inst.sb [SCOREBOARD] 
WRITE Address: AWADDR=0x88be7a5b	 AWID=0xc	 AWLEN=5	 AWSIZE=3	 AWBURST=1

UVM_INFO @ 545: uvm_test_top.env_inst.sb [SCOREBOARD] 
WRITE Data:	 WDATA=0x'{'h43cca97c}	 WSTRB=0x5	 WLAST=0

UVM_INFO @ 545: uvm_test_top.env_inst.sb [SCOREBOARD] 
WRITE Response:	 BID=0xc	 BRESP=0x0

UVM_INFO @ 555: uvm_test_top.env_inst.cov_model [COV_MODEL] Sampling read coverage for transaction: ARSIZE=0x0
UVM_INFO @ 555: uvm_test_top.env_inst.sb [SCOREBOARD] 
READ Address: ARADDR=0x0	 ARID=0x0	 ARLEN=0	 ARSIZE=0	 ARBURST=0

UVM_INFO @ 555: uvm_test_top.env_inst.sb [SCOREBOARD] 
READ Data: RDATA=0x0	 RRESP=0x0	 RLAST=0x0

UVM_INFO @ 585: uvm_test_top.env_inst.cov_model [COV_MODEL] Sampling write coverage for transaction: WSTRB=0x5, AWSIZE=0x0
UVM_INFO @ 585: uvm_test_top.env_inst.sb [SCOREBOARD] 
WRITE Address: AWADDR=0x0	 AWID=0x0	 AWLEN=0	 AWSIZE=0	 AWBURST=0

UVM_INFO @ 585: uvm_test_top.env_inst.sb [SCOREBOARD] 
WRITE Data:	 WDATA=0x'{'h6127d975}	 WSTRB=0x5	 WLAST=0

UVM_INFO @ 585: uvm_test_top.env_inst.sb [SCOREBOARD] 
WRITE Response:	 BID=0xc	 BRESP=0x0

UVM_INFO @ 595: uvm_test_top.env_inst.cov_model [COV_MODEL] Sampling read coverage for transaction: ARSIZE=0x0
UVM_INFO @ 595: uvm_test_top.env_inst.sb [SCOREBOARD] 
READ Address: ARADDR=0x0	 ARID=0x0	 ARLEN=0	 ARSIZE=0	 ARBURST=0

UVM_INFO @ 595: uvm_test_top.env_inst.sb [SCOREBOARD] 
READ Data: RDATA=0x0	 RRESP=0x0	 RLAST=0x0

UVM_INFO @ 605: uvm_test_top.env_inst.agent_inst.seqr_inst@@multiple_outstanding_address_inst [SEQ] Running scenario = 27
UVM_INFO @ 605: uvm_test_top.env_inst.agent_inst.seqr_inst@@multiple_outstanding_address_inst [SEQ] Randomized AWADDR = 0x'{'h6c2323b1, 'h306da3e4, 'hf6a05d11, 'hbebb4f39, 'h88be7a5b}
UVM_INFO @ 605: uvm_test_top.env_inst.agent_inst.seqr_inst@@multiple_outstanding_address_inst [i] i value = 4
UVM_INFO @ 605: uvm_test_top.env_inst.agent_inst.seqr_inst@@multiple_outstanding_address_inst [SEQ] rand_wr_addr[0] = 0x6c2323b1
UVM_INFO @ 605: uvm_test_top.env_inst.agent_inst.seqr_inst@@multiple_outstanding_address_inst [SEQ] rand_wr_addr[1] = 0x306da3e4
UVM_INFO @ 605: uvm_test_top.env_inst.agent_inst.seqr_inst@@multiple_outstanding_address_inst [SEQ] rand_wr_addr[2] = 0xf6a05d11
UVM_INFO @ 605: uvm_test_top.env_inst.agent_inst.seqr_inst@@multiple_outstanding_address_inst [SEQ] rand_wr_addr[3] = 0xbebb4f39
UVM_INFO @ 605: uvm_test_top.env_inst.agent_inst.seqr_inst@@multiple_outstanding_address_inst [SEQ] AWADDR = 0x88be7a5b
UVM_INFO @ 625: uvm_test_top.env_inst.cov_model [COV_MODEL] Sampling write coverage for transaction: WSTRB=0x0, AWSIZE=0x0
UVM_INFO @ 625: uvm_test_top.env_inst.sb [SCOREBOARD] 
WRITE Address: AWADDR=0x0	 AWID=0x0	 AWLEN=0	 AWSIZE=0	 AWBURST=0

UVM_INFO @ 625: uvm_test_top.env_inst.sb [SCOREBOARD] 
WRITE Data:	 WDATA=0x'{'h0}	 WSTRB=0x0	 WLAST=0

UVM_INFO @ 625: uvm_test_top.env_inst.sb [SCOREBOARD] 
WRITE Response:	 BID=0x0	 BRESP=0x0

UVM_INFO @ 635: uvm_test_top.env_inst.cov_model [COV_MODEL] Sampling read coverage for transaction: ARSIZE=0x0
UVM_INFO @ 635: uvm_test_top.env_inst.sb [SCOREBOARD] 
READ Address: ARADDR=0x0	 ARID=0x0	 ARLEN=0	 ARSIZE=0	 ARBURST=0

UVM_INFO @ 635: uvm_test_top.env_inst.sb [SCOREBOARD] 
READ Data: RDATA=0x0	 RRESP=0x0	 RLAST=0x0

UVM_INFO @ 665: uvm_test_top.env_inst.cov_model [COV_MODEL] Sampling write coverage for transaction: WSTRB=0x1, AWSIZE=0x0
ncsim: *E,EILLVS: (File: ../UVME/env/axi_cov_model.sv, Line: 29):(Time: 665 NS + 1) Sampled value (12) for coverpoint (worklib.test_pkg::axi_cov_model::axi_write_cg@3068_2.AWID) is an illegal value.
UVM_INFO @ 665: uvm_test_top.env_inst.sb [SCOREBOARD] 
WRITE Address: AWADDR=0x54a9de77	 AWID=0xc	 AWLEN=5	 AWSIZE=0	 AWBURST=1

UVM_INFO @ 665: uvm_test_top.env_inst.sb [SCOREBOARD] 
WRITE Data:	 WDATA=0x'{'h7522914e}	 WSTRB=0x1	 WLAST=0

UVM_INFO @ 665: uvm_test_top.env_inst.sb [SCOREBOARD] 
WRITE Response:	 BID=0xc	 BRESP=0x0

UVM_INFO @ 675: uvm_test_top.env_inst.cov_model [COV_MODEL] Sampling read coverage for transaction: ARSIZE=0x0
UVM_INFO @ 675: uvm_test_top.env_inst.sb [SCOREBOARD] 
READ Address: ARADDR=0x0	 ARID=0x0	 ARLEN=0	 ARSIZE=0	 ARBURST=0

UVM_INFO @ 675: uvm_test_top.env_inst.sb [SCOREBOARD] 
READ Data: RDATA=0x0	 RRESP=0x0	 RLAST=0x0

UVM_INFO @ 705: uvm_test_top.env_inst.cov_model [COV_MODEL] Sampling write coverage for transaction: WSTRB=0x1, AWSIZE=0x0
UVM_INFO @ 705: uvm_test_top.env_inst.sb [SCOREBOARD] 
WRITE Address: AWADDR=0x0	 AWID=0x0	 AWLEN=0	 AWSIZE=0	 AWBURST=0

UVM_INFO @ 705: uvm_test_top.env_inst.sb [SCOREBOARD] 
WRITE Data:	 WDATA=0x'{'hacd0efc7}	 WSTRB=0x1	 WLAST=0

UVM_INFO @ 705: uvm_test_top.env_inst.sb [SCOREBOARD] 
WRITE Response:	 BID=0xc	 BRESP=0x0

UVM_INFO @ 715: uvm_test_top.env_inst.cov_model [COV_MODEL] Sampling read coverage for transaction: ARSIZE=0x0
UVM_INFO @ 715: uvm_test_top.env_inst.sb [SCOREBOARD] 
READ Address: ARADDR=0x0	 ARID=0x0	 ARLEN=0	 ARSIZE=0	 ARBURST=0

UVM_INFO @ 715: uvm_test_top.env_inst.sb [SCOREBOARD] 
READ Data: RDATA=0x0	 RRESP=0x0	 RLAST=0x0

UVM_INFO @ 725: uvm_test_top.env_inst.agent_inst.seqr_inst@@multiple_outstanding_address_inst [SEQ] Running scenario = 27
UVM_INFO @ 725: uvm_test_top.env_inst.agent_inst.seqr_inst@@multiple_outstanding_address_inst [SEQ] Randomized AWADDR = 0x'{'h6c2323b1, 'h306da3e4, 'hf6a05d11, 'hbebb4f39, 'h88be7a5b, 'h54a9de77}
UVM_INFO @ 725: uvm_test_top.env_inst.agent_inst.seqr_inst@@multiple_outstanding_address_inst [i] i value = 5
UVM_INFO @ 725: uvm_test_top.env_inst.agent_inst.seqr_inst@@multiple_outstanding_address_inst [SEQ] rand_wr_addr[0] = 0x6c2323b1
UVM_INFO @ 725: uvm_test_top.env_inst.agent_inst.seqr_inst@@multiple_outstanding_address_inst [SEQ] rand_wr_addr[1] = 0x306da3e4
UVM_INFO @ 725: uvm_test_top.env_inst.agent_inst.seqr_inst@@multiple_outstanding_address_inst [SEQ] rand_wr_addr[2] = 0xf6a05d11
UVM_INFO @ 725: uvm_test_top.env_inst.agent_inst.seqr_inst@@multiple_outstanding_address_inst [SEQ] rand_wr_addr[3] = 0xbebb4f39
UVM_INFO @ 725: uvm_test_top.env_inst.agent_inst.seqr_inst@@multiple_outstanding_address_inst [SEQ] rand_wr_addr[4] = 0x88be7a5b
UVM_INFO @ 725: uvm_test_top.env_inst.agent_inst.seqr_inst@@multiple_outstanding_address_inst [SEQ] AWADDR = 0x54a9de77
UVM_INFO @ 745: uvm_test_top.env_inst.cov_model [COV_MODEL] Sampling write coverage for transaction: WSTRB=0x0, AWSIZE=0x0
UVM_INFO @ 745: uvm_test_top.env_inst.sb [SCOREBOARD] 
WRITE Address: AWADDR=0x0	 AWID=0x0	 AWLEN=0	 AWSIZE=0	 AWBURST=0

UVM_INFO @ 745: uvm_test_top.env_inst.sb [SCOREBOARD] 
WRITE Data:	 WDATA=0x'{'h0}	 WSTRB=0x0	 WLAST=0

UVM_INFO @ 745: uvm_test_top.env_inst.sb [SCOREBOARD] 
WRITE Response:	 BID=0x0	 BRESP=0x0

UVM_INFO @ 755: uvm_test_top.env_inst.cov_model [COV_MODEL] Sampling read coverage for transaction: ARSIZE=0x0
UVM_INFO @ 755: uvm_test_top.env_inst.sb [SCOREBOARD] 
READ Address: ARADDR=0x0	 ARID=0x0	 ARLEN=0	 ARSIZE=0	 ARBURST=0

UVM_INFO @ 755: uvm_test_top.env_inst.sb [SCOREBOARD] 
READ Data: RDATA=0x0	 RRESP=0x0	 RLAST=0x0

UVM_INFO @ 785: uvm_test_top.env_inst.cov_model [COV_MODEL] Sampling write coverage for transaction: WSTRB=0x3, AWSIZE=0x1
ncsim: *E,EILLVS: (File: ../UVME/env/axi_cov_model.sv, Line: 29):(Time: 785 NS + 1) Sampled value (14) for coverpoint (worklib.test_pkg::axi_cov_model::axi_write_cg@3068_2.AWID) is an illegal value.
UVM_INFO @ 785: uvm_test_top.env_inst.sb [SCOREBOARD] 
WRITE Address: AWADDR=0x227d7b8d	 AWID=0xe	 AWLEN=5	 AWSIZE=1	 AWBURST=1

UVM_INFO @ 785: uvm_test_top.env_inst.sb [SCOREBOARD] 
WRITE Data:	 WDATA=0x'{'h47f6dba8}	 WSTRB=0x3	 WLAST=0

UVM_INFO @ 785: uvm_test_top.env_inst.sb [SCOREBOARD] 
WRITE Response:	 BID=0xe	 BRESP=0x0

UVM_INFO @ 795: uvm_test_top.env_inst.cov_model [COV_MODEL] Sampling read coverage for transaction: ARSIZE=0x0
UVM_INFO @ 795: uvm_test_top.env_inst.sb [SCOREBOARD] 
READ Address: ARADDR=0x0	 ARID=0x0	 ARLEN=0	 ARSIZE=0	 ARBURST=0

UVM_INFO @ 795: uvm_test_top.env_inst.sb [SCOREBOARD] 
READ Data: RDATA=0x0	 RRESP=0x0	 RLAST=0x0

UVM_INFO @ 825: uvm_test_top.env_inst.cov_model [COV_MODEL] Sampling write coverage for transaction: WSTRB=0x3, AWSIZE=0x0
UVM_INFO @ 825: uvm_test_top.env_inst.sb [SCOREBOARD] 
WRITE Address: AWADDR=0x0	 AWID=0x0	 AWLEN=0	 AWSIZE=0	 AWBURST=0

UVM_INFO @ 825: uvm_test_top.env_inst.sb [SCOREBOARD] 
WRITE Data:	 WDATA=0x'{'h9e2ead83}	 WSTRB=0x3	 WLAST=0

UVM_INFO @ 825: uvm_test_top.env_inst.sb [SCOREBOARD] 
WRITE Response:	 BID=0xe	 BRESP=0x0

UVM_INFO @ 835: uvm_test_top.env_inst.cov_model [COV_MODEL] Sampling read coverage for transaction: ARSIZE=0x0
UVM_INFO @ 835: uvm_test_top.env_inst.sb [SCOREBOARD] 
READ Address: ARADDR=0x0	 ARID=0x0	 ARLEN=0	 ARSIZE=0	 ARBURST=0

UVM_INFO @ 835: uvm_test_top.env_inst.sb [SCOREBOARD] 
READ Data: RDATA=0x0	 RRESP=0x0	 RLAST=0x0

UVM_INFO @ 845: uvm_test_top.env_inst.agent_inst.seqr_inst@@multiple_outstanding_address_inst [SEQ] Running scenario = 27
UVM_INFO @ 845: uvm_test_top.env_inst.agent_inst.seqr_inst@@multiple_outstanding_address_inst [SEQ] Randomized AWADDR = 0x'{'h6c2323b1, 'h306da3e4, 'hf6a05d11, 'hbebb4f39, 'h88be7a5b, 'h54a9de77, 'h227d7b8d}
UVM_INFO @ 845: uvm_test_top.env_inst.agent_inst.seqr_inst@@multiple_outstanding_address_inst [i] i value = 6
UVM_INFO @ 845: uvm_test_top.env_inst.agent_inst.seqr_inst@@multiple_outstanding_address_inst [SEQ] rand_wr_addr[0] = 0x6c2323b1
UVM_INFO @ 845: uvm_test_top.env_inst.agent_inst.seqr_inst@@multiple_outstanding_address_inst [SEQ] rand_wr_addr[1] = 0x306da3e4
UVM_INFO @ 845: uvm_test_top.env_inst.agent_inst.seqr_inst@@multiple_outstanding_address_inst [SEQ] rand_wr_addr[2] = 0xf6a05d11
UVM_INFO @ 845: uvm_test_top.env_inst.agent_inst.seqr_inst@@multiple_outstanding_address_inst [SEQ] rand_wr_addr[3] = 0xbebb4f39
UVM_INFO @ 845: uvm_test_top.env_inst.agent_inst.seqr_inst@@multiple_outstanding_address_inst [SEQ] rand_wr_addr[4] = 0x88be7a5b
UVM_INFO @ 845: uvm_test_top.env_inst.agent_inst.seqr_inst@@multiple_outstanding_address_inst [SEQ] rand_wr_addr[5] = 0x54a9de77
UVM_INFO @ 845: uvm_test_top.env_inst.agent_inst.seqr_inst@@multiple_outstanding_address_inst [SEQ] AWADDR = 0x227d7b8d
UVM_INFO @ 865: uvm_test_top.env_inst.cov_model [COV_MODEL] Sampling write coverage for transaction: WSTRB=0x0, AWSIZE=0x0
UVM_INFO @ 865: uvm_test_top.env_inst.sb [SCOREBOARD] 
WRITE Address: AWADDR=0x0	 AWID=0x0	 AWLEN=0	 AWSIZE=0	 AWBURST=0

UVM_INFO @ 865: uvm_test_top.env_inst.sb [SCOREBOARD] 
WRITE Data:	 WDATA=0x'{'h0}	 WSTRB=0x0	 WLAST=0

UVM_INFO @ 865: uvm_test_top.env_inst.sb [SCOREBOARD] 
WRITE Response:	 BID=0x0	 BRESP=0x0

UVM_INFO @ 875: uvm_test_top.env_inst.cov_model [COV_MODEL] Sampling read coverage for transaction: ARSIZE=0x0
UVM_INFO @ 875: uvm_test_top.env_inst.sb [SCOREBOARD] 
READ Address: ARADDR=0x0	 ARID=0x0	 ARLEN=0	 ARSIZE=0	 ARBURST=0

UVM_INFO @ 875: uvm_test_top.env_inst.sb [SCOREBOARD] 
READ Data: RDATA=0x0	 RRESP=0x0	 RLAST=0x0

UVM_INFO @ 905: uvm_test_top.env_inst.cov_model [COV_MODEL] Sampling write coverage for transaction: WSTRB=0xa, AWSIZE=0x0
UVM_INFO @ 905: uvm_test_top.env_inst.sb [SCOREBOARD] 
WRITE Address: AWADDR=0xf239519e	 AWID=0x3	 AWLEN=5	 AWSIZE=0	 AWBURST=1

UVM_INFO @ 905: uvm_test_top.env_inst.sb [SCOREBOARD] 
WRITE Data:	 WDATA=0x'{'hbc49888b}	 WSTRB=0xa	 WLAST=0

UVM_INFO @ 905: uvm_test_top.env_inst.sb [SCOREBOARD] 
WRITE Response:	 BID=0x3	 BRESP=0x0

UVM_INFO @ 915: uvm_test_top.env_inst.cov_model [COV_MODEL] Sampling read coverage for transaction: ARSIZE=0x0
UVM_INFO @ 915: uvm_test_top.env_inst.sb [SCOREBOARD] 
READ Address: ARADDR=0x0	 ARID=0x0	 ARLEN=0	 ARSIZE=0	 ARBURST=0

UVM_INFO @ 915: uvm_test_top.env_inst.sb [SCOREBOARD] 
READ Data: RDATA=0x0	 RRESP=0x0	 RLAST=0x0

UVM_INFO @ 945: uvm_test_top.env_inst.cov_model [COV_MODEL] Sampling write coverage for transaction: WSTRB=0xa, AWSIZE=0x0
UVM_INFO @ 945: uvm_test_top.env_inst.sb [SCOREBOARD] 
WRITE Address: AWADDR=0x0	 AWID=0x0	 AWLEN=0	 AWSIZE=0	 AWBURST=0

UVM_INFO @ 945: uvm_test_top.env_inst.sb [SCOREBOARD] 
WRITE Data:	 WDATA=0x'{'h354112a8}	 WSTRB=0xa	 WLAST=0

UVM_INFO @ 945: uvm_test_top.env_inst.sb [SCOREBOARD] 
WRITE Response:	 BID=0x3	 BRESP=0x0

UVM_INFO @ 955: uvm_test_top.env_inst.cov_model [COV_MODEL] Sampling read coverage for transaction: ARSIZE=0x0
UVM_INFO @ 955: uvm_test_top.env_inst.sb [SCOREBOARD] 
READ Address: ARADDR=0x0	 ARID=0x0	 ARLEN=0	 ARSIZE=0	 ARBURST=0

UVM_INFO @ 955: uvm_test_top.env_inst.sb [SCOREBOARD] 
READ Data: RDATA=0x0	 RRESP=0x0	 RLAST=0x0

UVM_INFO @ 965: uvm_test_top.env_inst.agent_inst.seqr_inst@@multiple_outstanding_address_inst [SEQ] Running scenario = 27
UVM_INFO @ 965: uvm_test_top.env_inst.agent_inst.seqr_inst@@multiple_outstanding_address_inst [SEQ] Randomized AWADDR = 0x'{'h6c2323b1, 'h306da3e4, 'hf6a05d11, 'hbebb4f39, 'h88be7a5b, 'h54a9de77, 'h227d7b8d, 'hf239519e}
UVM_INFO @ 965: uvm_test_top.env_inst.agent_inst.seqr_inst@@multiple_outstanding_address_inst [i] i value = 7
UVM_INFO @ 965: uvm_test_top.env_inst.agent_inst.seqr_inst@@multiple_outstanding_address_inst [SEQ] rand_wr_addr[0] = 0x6c2323b1
UVM_INFO @ 965: uvm_test_top.env_inst.agent_inst.seqr_inst@@multiple_outstanding_address_inst [SEQ] rand_wr_addr[1] = 0x306da3e4
UVM_INFO @ 965: uvm_test_top.env_inst.agent_inst.seqr_inst@@multiple_outstanding_address_inst [SEQ] rand_wr_addr[2] = 0xf6a05d11
UVM_INFO @ 965: uvm_test_top.env_inst.agent_inst.seqr_inst@@multiple_outstanding_address_inst [SEQ] rand_wr_addr[3] = 0xbebb4f39
UVM_INFO @ 965: uvm_test_top.env_inst.agent_inst.seqr_inst@@multiple_outstanding_address_inst [SEQ] rand_wr_addr[4] = 0x88be7a5b
UVM_INFO @ 965: uvm_test_top.env_inst.agent_inst.seqr_inst@@multiple_outstanding_address_inst [SEQ] rand_wr_addr[5] = 0x54a9de77
UVM_INFO @ 965: uvm_test_top.env_inst.agent_inst.seqr_inst@@multiple_outstanding_address_inst [SEQ] rand_wr_addr[6] = 0x227d7b8d
UVM_INFO @ 965: uvm_test_top.env_inst.agent_inst.seqr_inst@@multiple_outstanding_address_inst [SEQ] AWADDR = 0xf239519e
UVM_INFO @ 985: uvm_test_top.env_inst.cov_model [COV_MODEL] Sampling write coverage for transaction: WSTRB=0x0, AWSIZE=0x0
UVM_INFO @ 985: uvm_test_top.env_inst.sb [SCOREBOARD] 
WRITE Address: AWADDR=0x0	 AWID=0x0	 AWLEN=0	 AWSIZE=0	 AWBURST=0

UVM_INFO @ 985: uvm_test_top.env_inst.sb [SCOREBOARD] 
WRITE Data:	 WDATA=0x'{'h0}	 WSTRB=0x0	 WLAST=0

UVM_INFO @ 985: uvm_test_top.env_inst.sb [SCOREBOARD] 
WRITE Response:	 BID=0x0	 BRESP=0x0

UVM_INFO @ 995: uvm_test_top.env_inst.cov_model [COV_MODEL] Sampling read coverage for transaction: ARSIZE=0x0
UVM_INFO @ 995: uvm_test_top.env_inst.sb [SCOREBOARD] 
READ Address: ARADDR=0x0	 ARID=0x0	 ARLEN=0	 ARSIZE=0	 ARBURST=0

UVM_INFO @ 995: uvm_test_top.env_inst.sb [SCOREBOARD] 
READ Data: RDATA=0x0	 RRESP=0x0	 RLAST=0x0

UVM_INFO @ 1025: uvm_test_top.env_inst.cov_model [COV_MODEL] Sampling write coverage for transaction: WSTRB=0x6, AWSIZE=0x3
ncsim: *E,EILLVS: (File: ../UVME/env/axi_cov_model.sv, Line: 29):(Time: 1025 NS + 1) Sampled value (10) for coverpoint (worklib.test_pkg::axi_cov_model::axi_write_cg@3068_2.AWID) is an illegal value.
UVM_INFO @ 1025: uvm_test_top.env_inst.sb [SCOREBOARD] 
WRITE Address: AWADDR=0xc3dd60a9	 AWID=0xa	 AWLEN=5	 AWSIZE=3	 AWBURST=1

UVM_INFO @ 1025: uvm_test_top.env_inst.sb [SCOREBOARD] 
WRITE Data:	 WDATA=0x'{'hd21a97f5}	 WSTRB=0x6	 WLAST=0

UVM_INFO @ 1025: uvm_test_top.env_inst.sb [SCOREBOARD] 
WRITE Response:	 BID=0xa	 BRESP=0x0

UVM_INFO @ 1035: uvm_test_top.env_inst.cov_model [COV_MODEL] Sampling read coverage for transaction: ARSIZE=0x0
UVM_INFO @ 1035: uvm_test_top.env_inst.sb [SCOREBOARD] 
READ Address: ARADDR=0x0	 ARID=0x0	 ARLEN=0	 ARSIZE=0	 ARBURST=0

UVM_INFO @ 1035: uvm_test_top.env_inst.sb [SCOREBOARD] 
READ Data: RDATA=0x0	 RRESP=0x0	 RLAST=0x0

UVM_INFO @ 1065: uvm_test_top.env_inst.cov_model [COV_MODEL] Sampling write coverage for transaction: WSTRB=0x6, AWSIZE=0x0
UVM_INFO @ 1065: uvm_test_top.env_inst.sb [SCOREBOARD] 
WRITE Address: AWADDR=0x0	 AWID=0x0	 AWLEN=0	 AWSIZE=0	 AWBURST=0

UVM_INFO @ 1065: uvm_test_top.env_inst.sb [SCOREBOARD] 
WRITE Data:	 WDATA=0x'{'h72081f37}	 WSTRB=0x6	 WLAST=0

UVM_INFO @ 1065: uvm_test_top.env_inst.sb [SCOREBOARD] 
WRITE Response:	 BID=0xa	 BRESP=0x0

UVM_INFO @ 1075: uvm_test_top.env_inst.cov_model [COV_MODEL] Sampling read coverage for transaction: ARSIZE=0x0
UVM_INFO @ 1075: uvm_test_top.env_inst.sb [SCOREBOARD] 
READ Address: ARADDR=0x0	 ARID=0x0	 ARLEN=0	 ARSIZE=0	 ARBURST=0

UVM_INFO @ 1075: uvm_test_top.env_inst.sb [SCOREBOARD] 
READ Data: RDATA=0x0	 RRESP=0x0	 RLAST=0x0

UVM_INFO @ 1085: uvm_test_top.env_inst.agent_inst.seqr_inst@@multiple_outstanding_address_inst [SEQ] Running scenario = 27
UVM_INFO @ 1085: uvm_test_top.env_inst.agent_inst.seqr_inst@@multiple_outstanding_address_inst [SEQ] Randomized AWADDR = 0x'{'h6c2323b1, 'h306da3e4, 'hf6a05d11, 'hbebb4f39, 'h88be7a5b, 'h54a9de77, 'h227d7b8d, 'hf239519e, 'hc3dd60a9}
UVM_INFO @ 1085: uvm_test_top.env_inst.agent_inst.seqr_inst@@multiple_outstanding_address_inst [i] i value = 8
UVM_INFO @ 1085: uvm_test_top.env_inst.agent_inst.seqr_inst@@multiple_outstanding_address_inst [SEQ] rand_wr_addr[0] = 0x6c2323b1
UVM_INFO @ 1085: uvm_test_top.env_inst.agent_inst.seqr_inst@@multiple_outstanding_address_inst [SEQ] rand_wr_addr[1] = 0x306da3e4
UVM_INFO @ 1085: uvm_test_top.env_inst.agent_inst.seqr_inst@@multiple_outstanding_address_inst [SEQ] rand_wr_addr[2] = 0xf6a05d11
UVM_INFO @ 1085: uvm_test_top.env_inst.agent_inst.seqr_inst@@multiple_outstanding_address_inst [SEQ] rand_wr_addr[3] = 0xbebb4f39
UVM_INFO @ 1085: uvm_test_top.env_inst.agent_inst.seqr_inst@@multiple_outstanding_address_inst [SEQ] rand_wr_addr[4] = 0x88be7a5b
UVM_INFO @ 1085: uvm_test_top.env_inst.agent_inst.seqr_inst@@multiple_outstanding_address_inst [SEQ] rand_wr_addr[5] = 0x54a9de77
UVM_INFO @ 1085: uvm_test_top.env_inst.agent_inst.seqr_inst@@multiple_outstanding_address_inst [SEQ] rand_wr_addr[6] = 0x227d7b8d
UVM_INFO @ 1085: uvm_test_top.env_inst.agent_inst.seqr_inst@@multiple_outstanding_address_inst [SEQ] rand_wr_addr[7] = 0xf239519e
UVM_INFO @ 1085: uvm_test_top.env_inst.agent_inst.seqr_inst@@multiple_outstanding_address_inst [SEQ] AWADDR = 0xc3dd60a9
UVM_INFO @ 1105: uvm_test_top.env_inst.cov_model [COV_MODEL] Sampling write coverage for transaction: WSTRB=0x0, AWSIZE=0x0
UVM_INFO @ 1105: uvm_test_top.env_inst.sb [SCOREBOARD] 
WRITE Address: AWADDR=0x0	 AWID=0x0	 AWLEN=0	 AWSIZE=0	 AWBURST=0

UVM_INFO @ 1105: uvm_test_top.env_inst.sb [SCOREBOARD] 
WRITE Data:	 WDATA=0x'{'h0}	 WSTRB=0x0	 WLAST=0

UVM_INFO @ 1105: uvm_test_top.env_inst.sb [SCOREBOARD] 
WRITE Response:	 BID=0x0	 BRESP=0x0

UVM_INFO @ 1115: uvm_test_top.env_inst.cov_model [COV_MODEL] Sampling read coverage for transaction: ARSIZE=0x0
UVM_INFO @ 1115: uvm_test_top.env_inst.sb [SCOREBOARD] 
READ Address: ARADDR=0x0	 ARID=0x0	 ARLEN=0	 ARSIZE=0	 ARBURST=0

UVM_INFO @ 1115: uvm_test_top.env_inst.sb [SCOREBOARD] 
READ Data: RDATA=0x0	 RRESP=0x0	 RLAST=0x0

UVM_INFO @ 1145: uvm_test_top.env_inst.cov_model [COV_MODEL] Sampling write coverage for transaction: WSTRB=0x7, AWSIZE=0x3
ncsim: *E,EILLVS: (File: ../UVME/env/axi_cov_model.sv, Line: 29):(Time: 1145 NS + 1) Sampled value (4) for coverpoint (worklib.test_pkg::axi_cov_model::axi_write_cg@3068_2.AWID) is an illegal value.
UVM_INFO @ 1145: uvm_test_top.env_inst.sb [SCOREBOARD] 
WRITE Address: AWADDR=0x9769a8ae	 AWID=0x4	 AWLEN=5	 AWSIZE=3	 AWBURST=1

UVM_INFO @ 1145: uvm_test_top.env_inst.sb [SCOREBOARD] 
WRITE Data:	 WDATA=0x'{'h896a09e7}	 WSTRB=0x7	 WLAST=0

UVM_INFO @ 1145: uvm_test_top.env_inst.sb [SCOREBOARD] 
WRITE Response:	 BID=0x4	 BRESP=0x0

UVM_INFO @ 1155: uvm_test_top.env_inst.cov_model [COV_MODEL] Sampling read coverage for transaction: ARSIZE=0x0
UVM_INFO @ 1155: uvm_test_top.env_inst.sb [SCOREBOARD] 
READ Address: ARADDR=0x0	 ARID=0x0	 ARLEN=0	 ARSIZE=0	 ARBURST=0

UVM_INFO @ 1155: uvm_test_top.env_inst.sb [SCOREBOARD] 
READ Data: RDATA=0x0	 RRESP=0x0	 RLAST=0x0

UVM_INFO @ 1185: uvm_test_top.env_inst.cov_model [COV_MODEL] Sampling write coverage for transaction: WSTRB=0x7, AWSIZE=0x0
UVM_INFO @ 1185: uvm_test_top.env_inst.sb [SCOREBOARD] 
WRITE Address: AWADDR=0x0	 AWID=0x0	 AWLEN=0	 AWSIZE=0	 AWBURST=0

UVM_INFO @ 1185: uvm_test_top.env_inst.sb [SCOREBOARD] 
WRITE Data:	 WDATA=0x'{'h5483d32f}	 WSTRB=0x7	 WLAST=0

UVM_INFO @ 1185: uvm_test_top.env_inst.sb [SCOREBOARD] 
WRITE Response:	 BID=0x4	 BRESP=0x0

UVM_INFO @ 1195: uvm_test_top.env_inst.cov_model [COV_MODEL] Sampling read coverage for transaction: ARSIZE=0x0
UVM_INFO @ 1195: uvm_test_top.env_inst.sb [SCOREBOARD] 
READ Address: ARADDR=0x0	 ARID=0x0	 ARLEN=0	 ARSIZE=0	 ARBURST=0

UVM_INFO @ 1195: uvm_test_top.env_inst.sb [SCOREBOARD] 
READ Data: RDATA=0x0	 RRESP=0x0	 RLAST=0x0

UVM_INFO @ 1205: uvm_test_top.env_inst.agent_inst.seqr_inst@@multiple_outstanding_address_inst [SEQ] Running scenario = 27
UVM_INFO @ 1205: uvm_test_top.env_inst.agent_inst.seqr_inst@@multiple_outstanding_address_inst [SEQ] Randomized AWADDR = 0x'{'h6c2323b1, 'h306da3e4, 'hf6a05d11, 'hbebb4f39, 'h88be7a5b, 'h54a9de77, 'h227d7b8d, 'hf239519e, 'hc3dd60a9, 'h9769a8ae}
UVM_INFO @ 1205: uvm_test_top.env_inst.agent_inst.seqr_inst@@multiple_outstanding_address_inst [i] i value = 9
UVM_INFO @ 1205: uvm_test_top.env_inst.agent_inst.seqr_inst@@multiple_outstanding_address_inst [SEQ] rand_wr_addr[0] = 0x6c2323b1
UVM_INFO @ 1205: uvm_test_top.env_inst.agent_inst.seqr_inst@@multiple_outstanding_address_inst [SEQ] rand_wr_addr[1] = 0x306da3e4
UVM_INFO @ 1205: uvm_test_top.env_inst.agent_inst.seqr_inst@@multiple_outstanding_address_inst [SEQ] rand_wr_addr[2] = 0xf6a05d11
UVM_INFO @ 1205: uvm_test_top.env_inst.agent_inst.seqr_inst@@multiple_outstanding_address_inst [SEQ] rand_wr_addr[3] = 0xbebb4f39
UVM_INFO @ 1205: uvm_test_top.env_inst.agent_inst.seqr_inst@@multiple_outstanding_address_inst [SEQ] rand_wr_addr[4] = 0x88be7a5b
UVM_INFO @ 1205: uvm_test_top.env_inst.agent_inst.seqr_inst@@multiple_outstanding_address_inst [SEQ] rand_wr_addr[5] = 0x54a9de77
UVM_INFO @ 1205: uvm_test_top.env_inst.agent_inst.seqr_inst@@multiple_outstanding_address_inst [SEQ] rand_wr_addr[6] = 0x227d7b8d
UVM_INFO @ 1205: uvm_test_top.env_inst.agent_inst.seqr_inst@@multiple_outstanding_address_inst [SEQ] rand_wr_addr[7] = 0xf239519e
UVM_INFO @ 1205: uvm_test_top.env_inst.agent_inst.seqr_inst@@multiple_outstanding_address_inst [SEQ] rand_wr_addr[8] = 0xc3dd60a9
UVM_INFO @ 1205: uvm_test_top.env_inst.agent_inst.seqr_inst@@multiple_outstanding_address_inst [SEQ] AWADDR = 0x9769a8ae
UVM_INFO @ 1225: uvm_test_top.env_inst.cov_model [COV_MODEL] Sampling write coverage for transaction: WSTRB=0x0, AWSIZE=0x0
UVM_INFO @ 1225: uvm_test_top.env_inst.sb [SCOREBOARD] 
WRITE Address: AWADDR=0x0	 AWID=0x0	 AWLEN=0	 AWSIZE=0	 AWBURST=0

UVM_INFO @ 1225: uvm_test_top.env_inst.sb [SCOREBOARD] 
WRITE Data:	 WDATA=0x'{'h0}	 WSTRB=0x0	 WLAST=0

UVM_INFO @ 1225: uvm_test_top.env_inst.sb [SCOREBOARD] 
WRITE Response:	 BID=0x0	 BRESP=0x0

UVM_INFO @ 1235: uvm_test_top.env_inst.cov_model [COV_MODEL] Sampling read coverage for transaction: ARSIZE=0x0
UVM_INFO @ 1235: uvm_test_top.env_inst.sb [SCOREBOARD] 
READ Address: ARADDR=0x0	 ARID=0x0	 ARLEN=0	 ARSIZE=0	 ARBURST=0

UVM_INFO @ 1235: uvm_test_top.env_inst.sb [SCOREBOARD] 
READ Data: RDATA=0x0	 RRESP=0x0	 RLAST=0x0

UVM_INFO @ 1265: uvm_test_top.env_inst.cov_model [COV_MODEL] Sampling write coverage for transaction: WSTRB=0xe, AWSIZE=0x0
UVM_INFO @ 1265: uvm_test_top.env_inst.sb [SCOREBOARD] 
WRITE Address: AWADDR=0x6cde29ad	 AWID=0x0	 AWLEN=5	 AWSIZE=0	 AWBURST=1

UVM_INFO @ 1265: uvm_test_top.env_inst.sb [SCOREBOARD] 
WRITE Data:	 WDATA=0x'{'he237de61}	 WSTRB=0xe	 WLAST=0

UVM_INFO @ 1265: uvm_test_top.env_inst.sb [SCOREBOARD] 
WRITE Response:	 BID=0x0	 BRESP=0x0

UVM_INFO @ 1275: uvm_test_top.env_inst.cov_model [COV_MODEL] Sampling read coverage for transaction: ARSIZE=0x0
UVM_INFO @ 1275: uvm_test_top.env_inst.sb [SCOREBOARD] 
READ Address: ARADDR=0x0	 ARID=0x0	 ARLEN=0	 ARSIZE=0	 ARBURST=0

UVM_INFO @ 1275: uvm_test_top.env_inst.sb [SCOREBOARD] 
READ Data: RDATA=0x0	 RRESP=0x0	 RLAST=0x0

UVM_INFO @ 1305: uvm_test_top.env_inst.cov_model [COV_MODEL] Sampling write coverage for transaction: WSTRB=0xe, AWSIZE=0x0
UVM_INFO @ 1305: uvm_test_top.env_inst.sb [SCOREBOARD] 
WRITE Address: AWADDR=0x0	 AWID=0x0	 AWLEN=0	 AWSIZE=0	 AWBURST=0

UVM_INFO @ 1305: uvm_test_top.env_inst.sb [SCOREBOARD] 
WRITE Data:	 WDATA=0x'{'hdcb42e90}	 WSTRB=0xe	 WLAST=0

UVM_INFO @ 1305: uvm_test_top.env_inst.sb [SCOREBOARD] 
WRITE Response:	 BID=0x0	 BRESP=0x0

UVM_INFO @ 1315: uvm_test_top.env_inst.cov_model [COV_MODEL] Sampling read coverage for transaction: ARSIZE=0x0
UVM_INFO @ 1315: uvm_test_top.env_inst.sb [SCOREBOARD] 
READ Address: ARADDR=0x0	 ARID=0x0	 ARLEN=0	 ARSIZE=0	 ARBURST=0

UVM_INFO @ 1315: uvm_test_top.env_inst.sb [SCOREBOARD] 
READ Data: RDATA=0x0	 RRESP=0x0	 RLAST=0x0

UVM_INFO @ 1325: uvm_test_top.env_inst.agent_inst.seqr_inst@@multiple_outstanding_address_inst [SEQ] Running scenario = 27
UVM_INFO @ 1325: uvm_test_top.env_inst.agent_inst.seqr_inst@@multiple_outstanding_address_inst [SEQ] Randomized AWADDR = 0x'{'h6c2323b1, 'h306da3e4, 'hf6a05d11, 'hbebb4f39, 'h88be7a5b, 'h54a9de77, 'h227d7b8d, 'hf239519e, 'hc3dd60a9, 'h9769a8ae, 'h6cde29ad}
UVM_INFO @ 1325: uvm_test_top.env_inst.agent_inst.seqr_inst@@multiple_outstanding_address_inst [i] i value = 10
UVM_INFO @ 1325: uvm_test_top.env_inst.agent_inst.seqr_inst@@multiple_outstanding_address_inst [SEQ] rand_wr_addr[0] = 0x6c2323b1
UVM_INFO @ 1325: uvm_test_top.env_inst.agent_inst.seqr_inst@@multiple_outstanding_address_inst [SEQ] rand_wr_addr[1] = 0x306da3e4
UVM_INFO @ 1325: uvm_test_top.env_inst.agent_inst.seqr_inst@@multiple_outstanding_address_inst [SEQ] rand_wr_addr[2] = 0xf6a05d11
UVM_INFO @ 1325: uvm_test_top.env_inst.agent_inst.seqr_inst@@multiple_outstanding_address_inst [SEQ] rand_wr_addr[3] = 0xbebb4f39
UVM_INFO @ 1325: uvm_test_top.env_inst.agent_inst.seqr_inst@@multiple_outstanding_address_inst [SEQ] rand_wr_addr[4] = 0x88be7a5b
UVM_INFO @ 1325: uvm_test_top.env_inst.agent_inst.seqr_inst@@multiple_outstanding_address_inst [SEQ] rand_wr_addr[5] = 0x54a9de77
UVM_INFO @ 1325: uvm_test_top.env_inst.agent_inst.seqr_inst@@multiple_outstanding_address_inst [SEQ] rand_wr_addr[6] = 0x227d7b8d
UVM_INFO @ 1325: uvm_test_top.env_inst.agent_inst.seqr_inst@@multiple_outstanding_address_inst [SEQ] rand_wr_addr[7] = 0xf239519e
UVM_INFO @ 1325: uvm_test_top.env_inst.agent_inst.seqr_inst@@multiple_outstanding_address_inst [SEQ] rand_wr_addr[8] = 0xc3dd60a9
UVM_INFO @ 1325: uvm_test_top.env_inst.agent_inst.seqr_inst@@multiple_outstanding_address_inst [SEQ] rand_wr_addr[9] = 0x9769a8ae
UVM_INFO @ 1325: uvm_test_top.env_inst.agent_inst.seqr_inst@@multiple_outstanding_address_inst [SEQ] AWADDR = 0x6cde29ad
UVM_INFO @ 1345: uvm_test_top.env_inst.cov_model [COV_MODEL] Sampling write coverage for transaction: WSTRB=0x0, AWSIZE=0x0
UVM_INFO @ 1345: uvm_test_top.env_inst.sb [SCOREBOARD] 
WRITE Address: AWADDR=0x0	 AWID=0x0	 AWLEN=0	 AWSIZE=0	 AWBURST=0

UVM_INFO @ 1345: uvm_test_top.env_inst.sb [SCOREBOARD] 
WRITE Data:	 WDATA=0x'{'h0}	 WSTRB=0x0	 WLAST=0

UVM_INFO @ 1345: uvm_test_top.env_inst.sb [SCOREBOARD] 
WRITE Response:	 BID=0x0	 BRESP=0x0

UVM_INFO @ 1355: uvm_test_top.env_inst.cov_model [COV_MODEL] Sampling read coverage for transaction: ARSIZE=0x0
UVM_INFO @ 1355: uvm_test_top.env_inst.sb [SCOREBOARD] 
READ Address: ARADDR=0x0	 ARID=0x0	 ARLEN=0	 ARSIZE=0	 ARBURST=0

UVM_INFO @ 1355: uvm_test_top.env_inst.sb [SCOREBOARD] 
READ Data: RDATA=0x0	 RRESP=0x0	 RLAST=0x0

UVM_INFO @ 1385: uvm_test_top.env_inst.cov_model [COV_MODEL] Sampling write coverage for transaction: WSTRB=0x9, AWSIZE=0x1
ncsim: *E,EILLVS: (File: ../UVME/env/axi_cov_model.sv, Line: 29):(Time: 1385 NS + 1) Sampled value (15) for coverpoint (worklib.test_pkg::axi_cov_model::axi_write_cg@3068_2.AWID) is an illegal value.
UVM_INFO @ 1385: uvm_test_top.env_inst.sb [SCOREBOARD] 
WRITE Address: AWADDR=0x443ae3a7	 AWID=0xf	 AWLEN=5	 AWSIZE=1	 AWBURST=1

UVM_INFO @ 1385: uvm_test_top.env_inst.sb [SCOREBOARD] 
WRITE Data:	 WDATA=0x'{'hdc841564}	 WSTRB=0x9	 WLAST=0

UVM_INFO @ 1385: uvm_test_top.env_inst.sb [SCOREBOARD] 
WRITE Response:	 BID=0xf	 BRESP=0x0

UVM_INFO @ 1395: uvm_test_top.env_inst.cov_model [COV_MODEL] Sampling read coverage for transaction: ARSIZE=0x0
UVM_INFO @ 1395: uvm_test_top.env_inst.sb [SCOREBOARD] 
READ Address: ARADDR=0x0	 ARID=0x0	 ARLEN=0	 ARSIZE=0	 ARBURST=0

UVM_INFO @ 1395: uvm_test_top.env_inst.sb [SCOREBOARD] 
READ Data: RDATA=0x0	 RRESP=0x0	 RLAST=0x0

UVM_INFO @ 1425: uvm_test_top.env_inst.cov_model [COV_MODEL] Sampling write coverage for transaction: WSTRB=0x9, AWSIZE=0x0
UVM_INFO @ 1425: uvm_test_top.env_inst.sb [SCOREBOARD] 
WRITE Address: AWADDR=0x0	 AWID=0x0	 AWLEN=0	 AWSIZE=0	 AWBURST=0

UVM_INFO @ 1425: uvm_test_top.env_inst.sb [SCOREBOARD] 
WRITE Data:	 WDATA=0x'{'ha99315a}	 WSTRB=0x9	 WLAST=0

UVM_INFO @ 1425: uvm_test_top.env_inst.sb [SCOREBOARD] 
WRITE Response:	 BID=0xf	 BRESP=0x0

UVM_INFO @ 1435: uvm_test_top.env_inst.cov_model [COV_MODEL] Sampling read coverage for transaction: ARSIZE=0x0
UVM_INFO @ 1435: uvm_test_top.env_inst.sb [SCOREBOARD] 
READ Address: ARADDR=0x0	 ARID=0x0	 ARLEN=0	 ARSIZE=0	 ARBURST=0

UVM_INFO @ 1435: uvm_test_top.env_inst.sb [SCOREBOARD] 
READ Data: RDATA=0x0	 RRESP=0x0	 RLAST=0x0

UVM_INFO @ 1445: uvm_test_top.env_inst.agent_inst.seqr_inst@@multiple_outstanding_address_inst [SEQ] Running scenario = 27
UVM_INFO @ 1445: uvm_test_top.env_inst.agent_inst.seqr_inst@@multiple_outstanding_address_inst [SEQ] Randomized AWADDR = 0x'{'h6c2323b1, 'h306da3e4, 'hf6a05d11, 'hbebb4f39, 'h88be7a5b, 'h54a9de77, 'h227d7b8d, 'hf239519e, 'hc3dd60a9, 'h9769a8ae, 'h6cde29ad, 'h443ae3a7}
UVM_INFO @ 1445: uvm_test_top.env_inst.agent_inst.seqr_inst@@multiple_outstanding_address_inst [i] i value = 11
UVM_INFO @ 1445: uvm_test_top.env_inst.agent_inst.seqr_inst@@multiple_outstanding_address_inst [SEQ] rand_wr_addr[0] = 0x6c2323b1
UVM_INFO @ 1445: uvm_test_top.env_inst.agent_inst.seqr_inst@@multiple_outstanding_address_inst [SEQ] rand_wr_addr[1] = 0x306da3e4
UVM_INFO @ 1445: uvm_test_top.env_inst.agent_inst.seqr_inst@@multiple_outstanding_address_inst [SEQ] rand_wr_addr[2] = 0xf6a05d11
UVM_INFO @ 1445: uvm_test_top.env_inst.agent_inst.seqr_inst@@multiple_outstanding_address_inst [SEQ] rand_wr_addr[3] = 0xbebb4f39
UVM_INFO @ 1445: uvm_test_top.env_inst.agent_inst.seqr_inst@@multiple_outstanding_address_inst [SEQ] rand_wr_addr[4] = 0x88be7a5b
UVM_INFO @ 1445: uvm_test_top.env_inst.agent_inst.seqr_inst@@multiple_outstanding_address_inst [SEQ] rand_wr_addr[5] = 0x54a9de77
UVM_INFO @ 1445: uvm_test_top.env_inst.agent_inst.seqr_inst@@multiple_outstanding_address_inst [SEQ] rand_wr_addr[6] = 0x227d7b8d
UVM_INFO @ 1445: uvm_test_top.env_inst.agent_inst.seqr_inst@@multiple_outstanding_address_inst [SEQ] rand_wr_addr[7] = 0xf239519e
UVM_INFO @ 1445: uvm_test_top.env_inst.agent_inst.seqr_inst@@multiple_outstanding_address_inst [SEQ] rand_wr_addr[8] = 0xc3dd60a9
UVM_INFO @ 1445: uvm_test_top.env_inst.agent_inst.seqr_inst@@multiple_outstanding_address_inst [SEQ] rand_wr_addr[9] = 0x9769a8ae
UVM_INFO @ 1445: uvm_test_top.env_inst.agent_inst.seqr_inst@@multiple_outstanding_address_inst [SEQ] rand_wr_addr[10] = 0x6cde29ad
UVM_INFO @ 1445: uvm_test_top.env_inst.agent_inst.seqr_inst@@multiple_outstanding_address_inst [SEQ] AWADDR = 0x443ae3a7
UVM_INFO @ 1465: uvm_test_top.env_inst.cov_model [COV_MODEL] Sampling write coverage for transaction: WSTRB=0x0, AWSIZE=0x0
UVM_INFO @ 1465: uvm_test_top.env_inst.sb [SCOREBOARD] 
WRITE Address: AWADDR=0x0	 AWID=0x0	 AWLEN=0	 AWSIZE=0	 AWBURST=0

UVM_INFO @ 1465: uvm_test_top.env_inst.sb [SCOREBOARD] 
WRITE Data:	 WDATA=0x'{'h0}	 WSTRB=0x0	 WLAST=0

UVM_INFO @ 1465: uvm_test_top.env_inst.sb [SCOREBOARD] 
WRITE Response:	 BID=0x0	 BRESP=0x0

UVM_INFO @ 1475: uvm_test_top.env_inst.cov_model [COV_MODEL] Sampling read coverage for transaction: ARSIZE=0x0
UVM_INFO @ 1475: uvm_test_top.env_inst.sb [SCOREBOARD] 
READ Address: ARADDR=0x0	 ARID=0x0	 ARLEN=0	 ARSIZE=0	 ARBURST=0

UVM_INFO @ 1475: uvm_test_top.env_inst.sb [SCOREBOARD] 
READ Data: RDATA=0x0	 RRESP=0x0	 RLAST=0x0

UVM_INFO @ 1505: uvm_test_top.env_inst.cov_model [COV_MODEL] Sampling write coverage for transaction: WSTRB=0xa, AWSIZE=0x0
UVM_INFO @ 1505: uvm_test_top.env_inst.sb [SCOREBOARD] 
WRITE Address: AWADDR=0x1d7fd69b	 AWID=0x0	 AWLEN=5	 AWSIZE=0	 AWBURST=1

UVM_INFO @ 1505: uvm_test_top.env_inst.sb [SCOREBOARD] 
WRITE Data:	 WDATA=0x'{'h784eaeee}	 WSTRB=0xa	 WLAST=0

UVM_INFO @ 1505: uvm_test_top.env_inst.sb [SCOREBOARD] 
WRITE Response:	 BID=0x0	 BRESP=0x0

UVM_INFO @ 1515: uvm_test_top.env_inst.cov_model [COV_MODEL] Sampling read coverage for transaction: ARSIZE=0x0
UVM_INFO @ 1515: uvm_test_top.env_inst.sb [SCOREBOARD] 
READ Address: ARADDR=0x0	 ARID=0x0	 ARLEN=0	 ARSIZE=0	 ARBURST=0

UVM_INFO @ 1515: uvm_test_top.env_inst.sb [SCOREBOARD] 
READ Data: RDATA=0x0	 RRESP=0x0	 RLAST=0x0

UVM_INFO @ 1545: uvm_test_top.env_inst.cov_model [COV_MODEL] Sampling write coverage for transaction: WSTRB=0xa, AWSIZE=0x0
UVM_INFO @ 1545: uvm_test_top.env_inst.sb [SCOREBOARD] 
WRITE Address: AWADDR=0x0	 AWID=0x0	 AWLEN=0	 AWSIZE=0	 AWBURST=0

UVM_INFO @ 1545: uvm_test_top.env_inst.sb [SCOREBOARD] 
WRITE Data:	 WDATA=0x'{'hde32db8e}	 WSTRB=0xa	 WLAST=0

UVM_INFO @ 1545: uvm_test_top.env_inst.sb [SCOREBOARD] 
WRITE Response:	 BID=0x0	 BRESP=0x0

UVM_INFO @ 1555: uvm_test_top.env_inst.cov_model [COV_MODEL] Sampling read coverage for transaction: ARSIZE=0x0
UVM_INFO @ 1555: uvm_test_top.env_inst.sb [SCOREBOARD] 
READ Address: ARADDR=0x0	 ARID=0x0	 ARLEN=0	 ARSIZE=0	 ARBURST=0

UVM_INFO @ 1555: uvm_test_top.env_inst.sb [SCOREBOARD] 
READ Data: RDATA=0x0	 RRESP=0x0	 RLAST=0x0

UVM_INFO @ 1565: uvm_test_top.env_inst.agent_inst.seqr_inst@@multiple_outstanding_address_inst [SEQ] Running scenario = 27
UVM_INFO @ 1565: uvm_test_top.env_inst.agent_inst.seqr_inst@@multiple_outstanding_address_inst [SEQ] Randomized AWADDR = 0x'{'h6c2323b1, 'h306da3e4, 'hf6a05d11, 'hbebb4f39, 'h88be7a5b, 'h54a9de77, 'h227d7b8d, 'hf239519e, 'hc3dd60a9, 'h9769a8ae, 'h6cde29ad, 'h443ae3a7, 'h1d7fd69b}
UVM_INFO @ 1565: uvm_test_top.env_inst.agent_inst.seqr_inst@@multiple_outstanding_address_inst [i] i value = 12
UVM_INFO @ 1565: uvm_test_top.env_inst.agent_inst.seqr_inst@@multiple_outstanding_address_inst [SEQ] rand_wr_addr[0] = 0x6c2323b1
UVM_INFO @ 1565: uvm_test_top.env_inst.agent_inst.seqr_inst@@multiple_outstanding_address_inst [SEQ] rand_wr_addr[1] = 0x306da3e4
UVM_INFO @ 1565: uvm_test_top.env_inst.agent_inst.seqr_inst@@multiple_outstanding_address_inst [SEQ] rand_wr_addr[2] = 0xf6a05d11
UVM_INFO @ 1565: uvm_test_top.env_inst.agent_inst.seqr_inst@@multiple_outstanding_address_inst [SEQ] rand_wr_addr[3] = 0xbebb4f39
UVM_INFO @ 1565: uvm_test_top.env_inst.agent_inst.seqr_inst@@multiple_outstanding_address_inst [SEQ] rand_wr_addr[4] = 0x88be7a5b
UVM_INFO @ 1565: uvm_test_top.env_inst.agent_inst.seqr_inst@@multiple_outstanding_address_inst [SEQ] rand_wr_addr[5] = 0x54a9de77
UVM_INFO @ 1565: uvm_test_top.env_inst.agent_inst.seqr_inst@@multiple_outstanding_address_inst [SEQ] rand_wr_addr[6] = 0x227d7b8d
UVM_INFO @ 1565: uvm_test_top.env_inst.agent_inst.seqr_inst@@multiple_outstanding_address_inst [SEQ] rand_wr_addr[7] = 0xf239519e
UVM_INFO @ 1565: uvm_test_top.env_inst.agent_inst.seqr_inst@@multiple_outstanding_address_inst [SEQ] rand_wr_addr[8] = 0xc3dd60a9
UVM_INFO @ 1565: uvm_test_top.env_inst.agent_inst.seqr_inst@@multiple_outstanding_address_inst [SEQ] rand_wr_addr[9] = 0x9769a8ae
UVM_INFO @ 1565: uvm_test_top.env_inst.agent_inst.seqr_inst@@multiple_outstanding_address_inst [SEQ] rand_wr_addr[10] = 0x6cde29ad
UVM_INFO @ 1565: uvm_test_top.env_inst.agent_inst.seqr_inst@@multiple_outstanding_address_inst [SEQ] rand_wr_addr[11] = 0x443ae3a7
UVM_INFO @ 1565: uvm_test_top.env_inst.agent_inst.seqr_inst@@multiple_outstanding_address_inst [SEQ] AWADDR = 0x1d7fd69b
UVM_INFO @ 1585: uvm_test_top.env_inst.cov_model [COV_MODEL] Sampling write coverage for transaction: WSTRB=0x0, AWSIZE=0x0
UVM_INFO @ 1585: uvm_test_top.env_inst.sb [SCOREBOARD] 
WRITE Address: AWADDR=0x0	 AWID=0x0	 AWLEN=0	 AWSIZE=0	 AWBURST=0

UVM_INFO @ 1585: uvm_test_top.env_inst.sb [SCOREBOARD] 
WRITE Data:	 WDATA=0x'{'h0}	 WSTRB=0x0	 WLAST=0

UVM_INFO @ 1585: uvm_test_top.env_inst.sb [SCOREBOARD] 
WRITE Response:	 BID=0x0	 BRESP=0x0

UVM_INFO @ 1595: uvm_test_top.env_inst.cov_model [COV_MODEL] Sampling read coverage for transaction: ARSIZE=0x0
UVM_INFO @ 1595: uvm_test_top.env_inst.sb [SCOREBOARD] 
READ Address: ARADDR=0x0	 ARID=0x0	 ARLEN=0	 ARSIZE=0	 ARBURST=0

UVM_INFO @ 1595: uvm_test_top.env_inst.sb [SCOREBOARD] 
READ Data: RDATA=0x0	 RRESP=0x0	 RLAST=0x0

UVM_INFO @ 1625: uvm_test_top.env_inst.cov_model [COV_MODEL] Sampling write coverage for transaction: WSTRB=0x0, AWSIZE=0x4
ncsim: *E,EILLVS: (File: ../UVME/env/axi_cov_model.sv, Line: 29):(Time: 1625 NS + 1) Sampled value (4) for coverpoint (worklib.test_pkg::axi_cov_model::axi_write_cg@3068_2.AWID) is an illegal value.
UVM_INFO @ 1625: uvm_test_top.env_inst.sb [SCOREBOARD] 
WRITE Address: AWADDR=0xf8ad0289	 AWID=0x4	 AWLEN=5	 AWSIZE=4	 AWBURST=1

UVM_INFO @ 1625: uvm_test_top.env_inst.sb [SCOREBOARD] 
WRITE Data:	 WDATA=0x'{'hb597ab00}	 WSTRB=0x0	 WLAST=0

UVM_INFO @ 1625: uvm_test_top.env_inst.sb [SCOREBOARD] 
WRITE Response:	 BID=0x4	 BRESP=0x0

UVM_INFO @ 1635: uvm_test_top.env_inst.cov_model [COV_MODEL] Sampling read coverage for transaction: ARSIZE=0x0
UVM_INFO @ 1635: uvm_test_top.env_inst.sb [SCOREBOARD] 
READ Address: ARADDR=0x0	 ARID=0x0	 ARLEN=0	 ARSIZE=0	 ARBURST=0

UVM_INFO @ 1635: uvm_test_top.env_inst.sb [SCOREBOARD] 
READ Data: RDATA=0x0	 RRESP=0x0	 RLAST=0x0

UVM_INFO @ 1665: uvm_test_top.env_inst.cov_model [COV_MODEL] Sampling write coverage for transaction: WSTRB=0x0, AWSIZE=0x0
UVM_INFO @ 1665: uvm_test_top.env_inst.sb [SCOREBOARD] 
WRITE Address: AWADDR=0x0	 AWID=0x0	 AWLEN=0	 AWSIZE=0	 AWBURST=0

UVM_INFO @ 1665: uvm_test_top.env_inst.sb [SCOREBOARD] 
WRITE Data:	 WDATA=0x'{'h57812d2b}	 WSTRB=0x0	 WLAST=0

UVM_INFO @ 1665: uvm_test_top.env_inst.sb [SCOREBOARD] 
WRITE Response:	 BID=0x4	 BRESP=0x0

UVM_INFO @ 1675: uvm_test_top.env_inst.cov_model [COV_MODEL] Sampling read coverage for transaction: ARSIZE=0x0
UVM_INFO @ 1675: uvm_test_top.env_inst.sb [SCOREBOARD] 
READ Address: ARADDR=0x0	 ARID=0x0	 ARLEN=0	 ARSIZE=0	 ARBURST=0

UVM_INFO @ 1675: uvm_test_top.env_inst.sb [SCOREBOARD] 
READ Data: RDATA=0x0	 RRESP=0x0	 RLAST=0x0

UVM_INFO @ 1685: uvm_test_top.env_inst.agent_inst.seqr_inst@@multiple_outstanding_address_inst [SEQ] Running scenario = 27
UVM_INFO @ 1685: uvm_test_top.env_inst.agent_inst.seqr_inst@@multiple_outstanding_address_inst [SEQ] Randomized AWADDR = 0x'{'h6c2323b1, 'h306da3e4, 'hf6a05d11, 'hbebb4f39, 'h88be7a5b, 'h54a9de77, 'h227d7b8d, 'hf239519e, 'hc3dd60a9, 'h9769a8ae, 'h6cde29ad, 'h443ae3a7, 'h1d7fd69b, 'hf8ad0289}
UVM_INFO @ 1685: uvm_test_top.env_inst.agent_inst.seqr_inst@@multiple_outstanding_address_inst [i] i value = 13
UVM_INFO @ 1685: uvm_test_top.env_inst.agent_inst.seqr_inst@@multiple_outstanding_address_inst [SEQ] rand_wr_addr[0] = 0x6c2323b1
UVM_INFO @ 1685: uvm_test_top.env_inst.agent_inst.seqr_inst@@multiple_outstanding_address_inst [SEQ] rand_wr_addr[1] = 0x306da3e4
UVM_INFO @ 1685: uvm_test_top.env_inst.agent_inst.seqr_inst@@multiple_outstanding_address_inst [SEQ] rand_wr_addr[2] = 0xf6a05d11
UVM_INFO @ 1685: uvm_test_top.env_inst.agent_inst.seqr_inst@@multiple_outstanding_address_inst [SEQ] rand_wr_addr[3] = 0xbebb4f39
UVM_INFO @ 1685: uvm_test_top.env_inst.agent_inst.seqr_inst@@multiple_outstanding_address_inst [SEQ] rand_wr_addr[4] = 0x88be7a5b
UVM_INFO @ 1685: uvm_test_top.env_inst.agent_inst.seqr_inst@@multiple_outstanding_address_inst [SEQ] rand_wr_addr[5] = 0x54a9de77
UVM_INFO @ 1685: uvm_test_top.env_inst.agent_inst.seqr_inst@@multiple_outstanding_address_inst [SEQ] rand_wr_addr[6] = 0x227d7b8d
UVM_INFO @ 1685: uvm_test_top.env_inst.agent_inst.seqr_inst@@multiple_outstanding_address_inst [SEQ] rand_wr_addr[7] = 0xf239519e
UVM_INFO @ 1685: uvm_test_top.env_inst.agent_inst.seqr_inst@@multiple_outstanding_address_inst [SEQ] rand_wr_addr[8] = 0xc3dd60a9
UVM_INFO @ 1685: uvm_test_top.env_inst.agent_inst.seqr_inst@@multiple_outstanding_address_inst [SEQ] rand_wr_addr[9] = 0x9769a8ae
UVM_INFO @ 1685: uvm_test_top.env_inst.agent_inst.seqr_inst@@multiple_outstanding_address_inst [SEQ] rand_wr_addr[10] = 0x6cde29ad
UVM_INFO @ 1685: uvm_test_top.env_inst.agent_inst.seqr_inst@@multiple_outstanding_address_inst [SEQ] rand_wr_addr[11] = 0x443ae3a7
UVM_INFO @ 1685: uvm_test_top.env_inst.agent_inst.seqr_inst@@multiple_outstanding_address_inst [SEQ] rand_wr_addr[12] = 0x1d7fd69b
UVM_INFO @ 1685: uvm_test_top.env_inst.agent_inst.seqr_inst@@multiple_outstanding_address_inst [SEQ] AWADDR = 0xf8ad0289
UVM_INFO @ 1705: uvm_test_top.env_inst.cov_model [COV_MODEL] Sampling write coverage for transaction: WSTRB=0x0, AWSIZE=0x0
UVM_INFO @ 1705: uvm_test_top.env_inst.sb [SCOREBOARD] 
WRITE Address: AWADDR=0x0	 AWID=0x0	 AWLEN=0	 AWSIZE=0	 AWBURST=0

UVM_INFO @ 1705: uvm_test_top.env_inst.sb [SCOREBOARD] 
WRITE Data:	 WDATA=0x'{'h0}	 WSTRB=0x0	 WLAST=0

UVM_INFO @ 1705: uvm_test_top.env_inst.sb [SCOREBOARD] 
WRITE Response:	 BID=0x0	 BRESP=0x0

UVM_INFO @ 1715: uvm_test_top.env_inst.cov_model [COV_MODEL] Sampling read coverage for transaction: ARSIZE=0x0
UVM_INFO @ 1715: uvm_test_top.env_inst.sb [SCOREBOARD] 
READ Address: ARADDR=0x0	 ARID=0x0	 ARLEN=0	 ARSIZE=0	 ARBURST=0

UVM_INFO @ 1715: uvm_test_top.env_inst.sb [SCOREBOARD] 
READ Data: RDATA=0x0	 RRESP=0x0	 RLAST=0x0

UVM_INFO @ 1745: uvm_test_top.env_inst.cov_model [COV_MODEL] Sampling write coverage for transaction: WSTRB=0xb, AWSIZE=0x4
ncsim: *E,EILLVS: (File: ../UVME/env/axi_cov_model.sv, Line: 29):(Time: 1745 NS + 1) Sampled value (11) for coverpoint (worklib.test_pkg::axi_cov_model::axi_write_cg@3068_2.AWID) is an illegal value.
UVM_INFO @ 1745: uvm_test_top.env_inst.sb [SCOREBOARD] 
WRITE Address: AWADDR=0xd5c26771	 AWID=0xb	 AWLEN=5	 AWSIZE=4	 AWBURST=1

UVM_INFO @ 1745: uvm_test_top.env_inst.sb [SCOREBOARD] 
WRITE Data:	 WDATA=0x'{'h945f099b}	 WSTRB=0xb	 WLAST=0

UVM_INFO @ 1745: uvm_test_top.env_inst.sb [SCOREBOARD] 
WRITE Response:	 BID=0xb	 BRESP=0x0

UVM_INFO @ 1755: uvm_test_top.env_inst.cov_model [COV_MODEL] Sampling read coverage for transaction: ARSIZE=0x0
UVM_INFO @ 1755: uvm_test_top.env_inst.sb [SCOREBOARD] 
READ Address: ARADDR=0x0	 ARID=0x0	 ARLEN=0	 ARSIZE=0	 ARBURST=0

UVM_INFO @ 1755: uvm_test_top.env_inst.sb [SCOREBOARD] 
READ Data: RDATA=0x0	 RRESP=0x0	 RLAST=0x0

UVM_INFO @ 1785: uvm_test_top.env_inst.cov_model [COV_MODEL] Sampling write coverage for transaction: WSTRB=0xb, AWSIZE=0x0
UVM_INFO @ 1785: uvm_test_top.env_inst.sb [SCOREBOARD] 
WRITE Address: AWADDR=0x0	 AWID=0x0	 AWLEN=0	 AWSIZE=0	 AWBURST=0

UVM_INFO @ 1785: uvm_test_top.env_inst.sb [SCOREBOARD] 
WRITE Data:	 WDATA=0x'{'h76842632}	 WSTRB=0xb	 WLAST=0

UVM_INFO @ 1785: uvm_test_top.env_inst.sb [SCOREBOARD] 
WRITE Response:	 BID=0xb	 BRESP=0x0

UVM_INFO @ 1795: uvm_test_top.env_inst.cov_model [COV_MODEL] Sampling read coverage for transaction: ARSIZE=0x0
UVM_INFO @ 1795: uvm_test_top.env_inst.sb [SCOREBOARD] 
READ Address: ARADDR=0x0	 ARID=0x0	 ARLEN=0	 ARSIZE=0	 ARBURST=0

UVM_INFO @ 1795: uvm_test_top.env_inst.sb [SCOREBOARD] 
READ Data: RDATA=0x0	 RRESP=0x0	 RLAST=0x0

UVM_INFO @ 1805: uvm_test_top.env_inst.agent_inst.seqr_inst@@multiple_outstanding_address_inst [SEQ] Running scenario = 27
UVM_INFO @ 1805: uvm_test_top.env_inst.agent_inst.seqr_inst@@multiple_outstanding_address_inst [SEQ] Randomized AWADDR = 0x'{'h6c2323b1, 'h306da3e4, 'hf6a05d11, 'hbebb4f39, 'h88be7a5b, 'h54a9de77, 'h227d7b8d, 'hf239519e, 'hc3dd60a9, 'h9769a8ae, 'h6cde29ad, 'h443ae3a7, 'h1d7fd69b, 'hf8ad0289, 'hd5c26771}
UVM_INFO @ 1805: uvm_test_top.env_inst.agent_inst.seqr_inst@@multiple_outstanding_address_inst [i] i value = 14
UVM_INFO @ 1805: uvm_test_top.env_inst.agent_inst.seqr_inst@@multiple_outstanding_address_inst [SEQ] rand_wr_addr[0] = 0x6c2323b1
UVM_INFO @ 1805: uvm_test_top.env_inst.agent_inst.seqr_inst@@multiple_outstanding_address_inst [SEQ] rand_wr_addr[1] = 0x306da3e4
UVM_INFO @ 1805: uvm_test_top.env_inst.agent_inst.seqr_inst@@multiple_outstanding_address_inst [SEQ] rand_wr_addr[2] = 0xf6a05d11
UVM_INFO @ 1805: uvm_test_top.env_inst.agent_inst.seqr_inst@@multiple_outstanding_address_inst [SEQ] rand_wr_addr[3] = 0xbebb4f39
UVM_INFO @ 1805: uvm_test_top.env_inst.agent_inst.seqr_inst@@multiple_outstanding_address_inst [SEQ] rand_wr_addr[4] = 0x88be7a5b
UVM_INFO @ 1805: uvm_test_top.env_inst.agent_inst.seqr_inst@@multiple_outstanding_address_inst [SEQ] rand_wr_addr[5] = 0x54a9de77
UVM_INFO @ 1805: uvm_test_top.env_inst.agent_inst.seqr_inst@@multiple_outstanding_address_inst [SEQ] rand_wr_addr[6] = 0x227d7b8d
UVM_INFO @ 1805: uvm_test_top.env_inst.agent_inst.seqr_inst@@multiple_outstanding_address_inst [SEQ] rand_wr_addr[7] = 0xf239519e
UVM_INFO @ 1805: uvm_test_top.env_inst.agent_inst.seqr_inst@@multiple_outstanding_address_inst [SEQ] rand_wr_addr[8] = 0xc3dd60a9
UVM_INFO @ 1805: uvm_test_top.env_inst.agent_inst.seqr_inst@@multiple_outstanding_address_inst [SEQ] rand_wr_addr[9] = 0x9769a8ae
UVM_INFO @ 1805: uvm_test_top.env_inst.agent_inst.seqr_inst@@multiple_outstanding_address_inst [SEQ] rand_wr_addr[10] = 0x6cde29ad
UVM_INFO @ 1805: uvm_test_top.env_inst.agent_inst.seqr_inst@@multiple_outstanding_address_inst [SEQ] rand_wr_addr[11] = 0x443ae3a7
UVM_INFO @ 1805: uvm_test_top.env_inst.agent_inst.seqr_inst@@multiple_outstanding_address_inst [SEQ] rand_wr_addr[12] = 0x1d7fd69b
UVM_INFO @ 1805: uvm_test_top.env_inst.agent_inst.seqr_inst@@multiple_outstanding_address_inst [SEQ] rand_wr_addr[13] = 0xf8ad0289
UVM_INFO @ 1805: uvm_test_top.env_inst.agent_inst.seqr_inst@@multiple_outstanding_address_inst [SEQ] AWADDR = 0xd5c26771
UVM_INFO @ 1825: uvm_test_top.env_inst.cov_model [COV_MODEL] Sampling write coverage for transaction: WSTRB=0x0, AWSIZE=0x0
UVM_INFO @ 1825: uvm_test_top.env_inst.sb [SCOREBOARD] 
WRITE Address: AWADDR=0x0	 AWID=0x0	 AWLEN=0	 AWSIZE=0	 AWBURST=0

UVM_INFO @ 1825: uvm_test_top.env_inst.sb [SCOREBOARD] 
WRITE Data:	 WDATA=0x'{'h0}	 WSTRB=0x0	 WLAST=0

UVM_INFO @ 1825: uvm_test_top.env_inst.sb [SCOREBOARD] 
WRITE Response:	 BID=0x0	 BRESP=0x0

UVM_INFO @ 1835: uvm_test_top.env_inst.cov_model [COV_MODEL] Sampling read coverage for transaction: ARSIZE=0x0
UVM_INFO @ 1835: uvm_test_top.env_inst.sb [SCOREBOARD] 
READ Address: ARADDR=0x0	 ARID=0x0	 ARLEN=0	 ARSIZE=0	 ARBURST=0

UVM_INFO @ 1835: uvm_test_top.env_inst.sb [SCOREBOARD] 
READ Data: RDATA=0x0	 RRESP=0x0	 RLAST=0x0

UVM_INFO @ 1865: uvm_test_top.env_inst.cov_model [COV_MODEL] Sampling write coverage for transaction: WSTRB=0xc, AWSIZE=0x1
ncsim: *E,EILLVS: (File: ../UVME/env/axi_cov_model.sv, Line: 29):(Time: 1865 NS + 1) Sampled value (4) for coverpoint (worklib.test_pkg::axi_cov_model::axi_write_cg@3068_2.AWID) is an illegal value.
UVM_INFO @ 1865: uvm_test_top.env_inst.sb [SCOREBOARD] 
WRITE Address: AWADDR=0xb4c00554	 AWID=0x4	 AWLEN=5	 AWSIZE=1	 AWBURST=1

UVM_INFO @ 1865: uvm_test_top.env_inst.sb [SCOREBOARD] 
WRITE Data:	 WDATA=0x'{'h14a4cabd}	 WSTRB=0xc	 WLAST=0

UVM_INFO @ 1865: uvm_test_top.env_inst.sb [SCOREBOARD] 
WRITE Response:	 BID=0x4	 BRESP=0x0

UVM_INFO @ 1875: uvm_test_top.env_inst.cov_model [COV_MODEL] Sampling read coverage for transaction: ARSIZE=0x0
UVM_INFO @ 1875: uvm_test_top.env_inst.sb [SCOREBOARD] 
READ Address: ARADDR=0x0	 ARID=0x0	 ARLEN=0	 ARSIZE=0	 ARBURST=0

UVM_INFO @ 1875: uvm_test_top.env_inst.sb [SCOREBOARD] 
READ Data: RDATA=0x0	 RRESP=0x0	 RLAST=0x0

UVM_INFO @ 1905: uvm_test_top.env_inst.cov_model [COV_MODEL] Sampling write coverage for transaction: WSTRB=0xc, AWSIZE=0x0
UVM_INFO @ 1905: uvm_test_top.env_inst.sb [SCOREBOARD] 
WRITE Address: AWADDR=0x0	 AWID=0x0	 AWLEN=0	 AWSIZE=0	 AWBURST=0

UVM_INFO @ 1905: uvm_test_top.env_inst.sb [SCOREBOARD] 
WRITE Data:	 WDATA=0x'{'h3b3bc6a2}	 WSTRB=0xc	 WLAST=0

UVM_INFO @ 1905: uvm_test_top.env_inst.sb [SCOREBOARD] 
WRITE Response:	 BID=0x4	 BRESP=0x0

UVM_INFO @ 1915: uvm_test_top.env_inst.cov_model [COV_MODEL] Sampling read coverage for transaction: ARSIZE=0x0
UVM_INFO @ 1915: uvm_test_top.env_inst.sb [SCOREBOARD] 
READ Address: ARADDR=0x0	 ARID=0x0	 ARLEN=0	 ARSIZE=0	 ARBURST=0

UVM_INFO @ 1915: uvm_test_top.env_inst.sb [SCOREBOARD] 
READ Data: RDATA=0x0	 RRESP=0x0	 RLAST=0x0

UVM_INFO @ 1925: uvm_test_top.env_inst.agent_inst.seqr_inst@@multiple_outstanding_address_inst [SEQ] Running scenario = 27
UVM_INFO @ 1925: uvm_test_top.env_inst.agent_inst.seqr_inst@@multiple_outstanding_address_inst [SEQ] Randomized AWADDR = 0x'{'h6c2323b1, 'h306da3e4, 'hf6a05d11, 'hbebb4f39, 'h88be7a5b, 'h54a9de77, 'h227d7b8d, 'hf239519e, 'hc3dd60a9, 'h9769a8ae, 'h6cde29ad, 'h443ae3a7, 'h1d7fd69b, 'hf8ad0289, 'hd5c26771, 'hb4c00554}
UVM_INFO @ 1925: uvm_test_top.env_inst.agent_inst.seqr_inst@@multiple_outstanding_address_inst [i] i value = 15
UVM_INFO @ 1925: uvm_test_top.env_inst.agent_inst.seqr_inst@@multiple_outstanding_address_inst [SEQ] rand_wr_addr[0] = 0x6c2323b1
UVM_INFO @ 1925: uvm_test_top.env_inst.agent_inst.seqr_inst@@multiple_outstanding_address_inst [SEQ] rand_wr_addr[1] = 0x306da3e4
UVM_INFO @ 1925: uvm_test_top.env_inst.agent_inst.seqr_inst@@multiple_outstanding_address_inst [SEQ] rand_wr_addr[2] = 0xf6a05d11
UVM_INFO @ 1925: uvm_test_top.env_inst.agent_inst.seqr_inst@@multiple_outstanding_address_inst [SEQ] rand_wr_addr[3] = 0xbebb4f39
UVM_INFO @ 1925: uvm_test_top.env_inst.agent_inst.seqr_inst@@multiple_outstanding_address_inst [SEQ] rand_wr_addr[4] = 0x88be7a5b
UVM_INFO @ 1925: uvm_test_top.env_inst.agent_inst.seqr_inst@@multiple_outstanding_address_inst [SEQ] rand_wr_addr[5] = 0x54a9de77
UVM_INFO @ 1925: uvm_test_top.env_inst.agent_inst.seqr_inst@@multiple_outstanding_address_inst [SEQ] rand_wr_addr[6] = 0x227d7b8d
UVM_INFO @ 1925: uvm_test_top.env_inst.agent_inst.seqr_inst@@multiple_outstanding_address_inst [SEQ] rand_wr_addr[7] = 0xf239519e
UVM_INFO @ 1925: uvm_test_top.env_inst.agent_inst.seqr_inst@@multiple_outstanding_address_inst [SEQ] rand_wr_addr[8] = 0xc3dd60a9
UVM_INFO @ 1925: uvm_test_top.env_inst.agent_inst.seqr_inst@@multiple_outstanding_address_inst [SEQ] rand_wr_addr[9] = 0x9769a8ae
UVM_INFO @ 1925: uvm_test_top.env_inst.agent_inst.seqr_inst@@multiple_outstanding_address_inst [SEQ] rand_wr_addr[10] = 0x6cde29ad
UVM_INFO @ 1925: uvm_test_top.env_inst.agent_inst.seqr_inst@@multiple_outstanding_address_inst [SEQ] rand_wr_addr[11] = 0x443ae3a7
UVM_INFO @ 1925: uvm_test_top.env_inst.agent_inst.seqr_inst@@multiple_outstanding_address_inst [SEQ] rand_wr_addr[12] = 0x1d7fd69b
UVM_INFO @ 1925: uvm_test_top.env_inst.agent_inst.seqr_inst@@multiple_outstanding_address_inst [SEQ] rand_wr_addr[13] = 0xf8ad0289
UVM_INFO @ 1925: uvm_test_top.env_inst.agent_inst.seqr_inst@@multiple_outstanding_address_inst [SEQ] rand_wr_addr[14] = 0xd5c26771
UVM_INFO @ 1925: uvm_test_top.env_inst.agent_inst.seqr_inst@@multiple_outstanding_address_inst [SEQ] AWADDR = 0xb4c00554
UVM_INFO @ 1945: uvm_test_top.env_inst.cov_model [COV_MODEL] Sampling write coverage for transaction: WSTRB=0x0, AWSIZE=0x0
UVM_INFO @ 1945: uvm_test_top.env_inst.sb [SCOREBOARD] 
WRITE Address: AWADDR=0x0	 AWID=0x0	 AWLEN=0	 AWSIZE=0	 AWBURST=0

UVM_INFO @ 1945: uvm_test_top.env_inst.sb [SCOREBOARD] 
WRITE Data:	 WDATA=0x'{'h0}	 WSTRB=0x0	 WLAST=0

UVM_INFO @ 1945: uvm_test_top.env_inst.sb [SCOREBOARD] 
WRITE Response:	 BID=0x0	 BRESP=0x0

UVM_INFO @ 1955: uvm_test_top.env_inst.cov_model [COV_MODEL] Sampling read coverage for transaction: ARSIZE=0x0
UVM_INFO @ 1955: uvm_test_top.env_inst.sb [SCOREBOARD] 
READ Address: ARADDR=0x0	 ARID=0x0	 ARLEN=0	 ARSIZE=0	 ARBURST=0

UVM_INFO @ 1955: uvm_test_top.env_inst.sb [SCOREBOARD] 
READ Data: RDATA=0x0	 RRESP=0x0	 RLAST=0x0

UVM_INFO @ 1985: uvm_test_top.env_inst.cov_model [COV_MODEL] Sampling write coverage for transaction: WSTRB=0x1, AWSIZE=0x3
ncsim: *E,EILLVS: (File: ../UVME/env/axi_cov_model.sv, Line: 29):(Time: 1985 NS + 1) Sampled value (15) for coverpoint (worklib.test_pkg::axi_cov_model::axi_write_cg@3068_2.AWID) is an illegal value.
UVM_INFO @ 1985: uvm_test_top.env_inst.sb [SCOREBOARD] 
WRITE Address: AWADDR=0x95a5dc30	 AWID=0xf	 AWLEN=5	 AWSIZE=3	 AWBURST=1

UVM_INFO @ 1985: uvm_test_top.env_inst.sb [SCOREBOARD] 
WRITE Data:	 WDATA=0x'{'h3668ee68}	 WSTRB=0x1	 WLAST=0

UVM_INFO @ 1985: uvm_test_top.env_inst.sb [SCOREBOARD] 
WRITE Response:	 BID=0xf	 BRESP=0x0

UVM_INFO @ 1995: uvm_test_top.env_inst.cov_model [COV_MODEL] Sampling read coverage for transaction: ARSIZE=0x0
UVM_INFO @ 1995: uvm_test_top.env_inst.sb [SCOREBOARD] 
READ Address: ARADDR=0x0	 ARID=0x0	 ARLEN=0	 ARSIZE=0	 ARBURST=0

UVM_INFO @ 1995: uvm_test_top.env_inst.sb [SCOREBOARD] 
READ Data: RDATA=0x0	 RRESP=0x0	 RLAST=0x0

UVM_INFO @ 2025: uvm_test_top.env_inst.cov_model [COV_MODEL] Sampling write coverage for transaction: WSTRB=0x1, AWSIZE=0x0
UVM_INFO @ 2025: uvm_test_top.env_inst.sb [SCOREBOARD] 
WRITE Address: AWADDR=0x0	 AWID=0x0	 AWLEN=0	 AWSIZE=0	 AWBURST=0

UVM_INFO @ 2025: uvm_test_top.env_inst.sb [SCOREBOARD] 
WRITE Data:	 WDATA=0x'{'ha5a80e7b}	 WSTRB=0x1	 WLAST=0

UVM_INFO @ 2025: uvm_test_top.env_inst.sb [SCOREBOARD] 
WRITE Response:	 BID=0xf	 BRESP=0x0

UVM_INFO @ 2035: uvm_test_top.env_inst.cov_model [COV_MODEL] Sampling read coverage for transaction: ARSIZE=0x0
UVM_INFO @ 2035: uvm_test_top.env_inst.sb [SCOREBOARD] 
READ Address: ARADDR=0x0	 ARID=0x0	 ARLEN=0	 ARSIZE=0	 ARBURST=0

UVM_INFO @ 2035: uvm_test_top.env_inst.sb [SCOREBOARD] 
READ Data: RDATA=0x0	 RRESP=0x0	 RLAST=0x0

UVM_INFO @ 2045: uvm_test_top.env_inst.agent_inst.seqr_inst@@multiple_outstanding_address_inst [SEQ] Running scenario = 27
UVM_INFO @ 2045: uvm_test_top.env_inst.agent_inst.seqr_inst@@multiple_outstanding_address_inst [SEQ] Randomized AWADDR = 0x'{'h6c2323b1, 'h306da3e4, 'hf6a05d11, 'hbebb4f39, 'h88be7a5b, 'h54a9de77, 'h227d7b8d, 'hf239519e, 'hc3dd60a9, 'h9769a8ae, 'h6cde29ad, 'h443ae3a7, 'h1d7fd69b, 'hf8ad0289, 'hd5c26771, 'hb4c00554, 'h95a5dc30}
UVM_INFO @ 2045: uvm_test_top.env_inst.agent_inst.seqr_inst@@multiple_outstanding_address_inst [i] i value = 16
UVM_INFO @ 2045: uvm_test_top.env_inst.agent_inst.seqr_inst@@multiple_outstanding_address_inst [SEQ] rand_wr_addr[0] = 0x6c2323b1
UVM_INFO @ 2045: uvm_test_top.env_inst.agent_inst.seqr_inst@@multiple_outstanding_address_inst [SEQ] rand_wr_addr[1] = 0x306da3e4
UVM_INFO @ 2045: uvm_test_top.env_inst.agent_inst.seqr_inst@@multiple_outstanding_address_inst [SEQ] rand_wr_addr[2] = 0xf6a05d11
UVM_INFO @ 2045: uvm_test_top.env_inst.agent_inst.seqr_inst@@multiple_outstanding_address_inst [SEQ] rand_wr_addr[3] = 0xbebb4f39
UVM_INFO @ 2045: uvm_test_top.env_inst.agent_inst.seqr_inst@@multiple_outstanding_address_inst [SEQ] rand_wr_addr[4] = 0x88be7a5b
UVM_INFO @ 2045: uvm_test_top.env_inst.agent_inst.seqr_inst@@multiple_outstanding_address_inst [SEQ] rand_wr_addr[5] = 0x54a9de77
UVM_INFO @ 2045: uvm_test_top.env_inst.agent_inst.seqr_inst@@multiple_outstanding_address_inst [SEQ] rand_wr_addr[6] = 0x227d7b8d
UVM_INFO @ 2045: uvm_test_top.env_inst.agent_inst.seqr_inst@@multiple_outstanding_address_inst [SEQ] rand_wr_addr[7] = 0xf239519e
UVM_INFO @ 2045: uvm_test_top.env_inst.agent_inst.seqr_inst@@multiple_outstanding_address_inst [SEQ] rand_wr_addr[8] = 0xc3dd60a9
UVM_INFO @ 2045: uvm_test_top.env_inst.agent_inst.seqr_inst@@multiple_outstanding_address_inst [SEQ] rand_wr_addr[9] = 0x9769a8ae
UVM_INFO @ 2045: uvm_test_top.env_inst.agent_inst.seqr_inst@@multiple_outstanding_address_inst [SEQ] rand_wr_addr[10] = 0x6cde29ad
UVM_INFO @ 2045: uvm_test_top.env_inst.agent_inst.seqr_inst@@multiple_outstanding_address_inst [SEQ] rand_wr_addr[11] = 0x443ae3a7
UVM_INFO @ 2045: uvm_test_top.env_inst.agent_inst.seqr_inst@@multiple_outstanding_address_inst [SEQ] rand_wr_addr[12] = 0x1d7fd69b
UVM_INFO @ 2045: uvm_test_top.env_inst.agent_inst.seqr_inst@@multiple_outstanding_address_inst [SEQ] rand_wr_addr[13] = 0xf8ad0289
UVM_INFO @ 2045: uvm_test_top.env_inst.agent_inst.seqr_inst@@multiple_outstanding_address_inst [SEQ] rand_wr_addr[14] = 0xd5c26771
UVM_INFO @ 2045: uvm_test_top.env_inst.agent_inst.seqr_inst@@multiple_outstanding_address_inst [SEQ] rand_wr_addr[15] = 0xb4c00554
UVM_INFO @ 2045: uvm_test_top.env_inst.agent_inst.seqr_inst@@multiple_outstanding_address_inst [SEQ] AWADDR = 0x95a5dc30
UVM_INFO @ 2065: uvm_test_top.env_inst.cov_model [COV_MODEL] Sampling write coverage for transaction: WSTRB=0x0, AWSIZE=0x0
UVM_INFO @ 2065: uvm_test_top.env_inst.sb [SCOREBOARD] 
WRITE Address: AWADDR=0x0	 AWID=0x0	 AWLEN=0	 AWSIZE=0	 AWBURST=0

UVM_INFO @ 2065: uvm_test_top.env_inst.sb [SCOREBOARD] 
WRITE Data:	 WDATA=0x'{'h0}	 WSTRB=0x0	 WLAST=0

UVM_INFO @ 2065: uvm_test_top.env_inst.sb [SCOREBOARD] 
WRITE Response:	 BID=0x0	 BRESP=0x0

UVM_INFO @ 2075: uvm_test_top.env_inst.cov_model [COV_MODEL] Sampling read coverage for transaction: ARSIZE=0x0
UVM_INFO @ 2075: uvm_test_top.env_inst.sb [SCOREBOARD] 
READ Address: ARADDR=0x0	 ARID=0x0	 ARLEN=0	 ARSIZE=0	 ARBURST=0

UVM_INFO @ 2075: uvm_test_top.env_inst.sb [SCOREBOARD] 
READ Data: RDATA=0x0	 RRESP=0x0	 RLAST=0x0

UVM_INFO @ 2105: uvm_test_top.env_inst.cov_model [COV_MODEL] Sampling write coverage for transaction: WSTRB=0xc, AWSIZE=0x2
ncsim: *E,EILLVS: (File: ../UVME/env/axi_cov_model.sv, Line: 29):(Time: 2105 NS + 1) Sampled value (13) for coverpoint (worklib.test_pkg::axi_cov_model::axi_write_cg@3068_2.AWID) is an illegal value.
UVM_INFO @ 2105: uvm_test_top.env_inst.sb [SCOREBOARD] 
WRITE Address: AWADDR=0x7873ec07	 AWID=0xd	 AWLEN=5	 AWSIZE=2	 AWBURST=1

UVM_INFO @ 2105: uvm_test_top.env_inst.sb [SCOREBOARD] 
WRITE Data:	 WDATA=0x'{'hf9ab749a}	 WSTRB=0xc	 WLAST=0

UVM_INFO @ 2105: uvm_test_top.env_inst.sb [SCOREBOARD] 
WRITE Response:	 BID=0xd	 BRESP=0x0

UVM_INFO @ 2115: uvm_test_top.env_inst.cov_model [COV_MODEL] Sampling read coverage for transaction: ARSIZE=0x0
UVM_INFO @ 2115: uvm_test_top.env_inst.sb [SCOREBOARD] 
READ Address: ARADDR=0x0	 ARID=0x0	 ARLEN=0	 ARSIZE=0	 ARBURST=0

UVM_INFO @ 2115: uvm_test_top.env_inst.sb [SCOREBOARD] 
READ Data: RDATA=0x0	 RRESP=0x0	 RLAST=0x0

UVM_INFO @ 2145: uvm_test_top.env_inst.cov_model [COV_MODEL] Sampling write coverage for transaction: WSTRB=0xc, AWSIZE=0x0
UVM_INFO @ 2145: uvm_test_top.env_inst.sb [SCOREBOARD] 
WRITE Address: AWADDR=0x0	 AWID=0x0	 AWLEN=0	 AWSIZE=0	 AWBURST=0

UVM_INFO @ 2145: uvm_test_top.env_inst.sb [SCOREBOARD] 
WRITE Data:	 WDATA=0x'{'hb5c8fdbe}	 WSTRB=0xc	 WLAST=0

UVM_INFO @ 2145: uvm_test_top.env_inst.sb [SCOREBOARD] 
WRITE Response:	 BID=0xd	 BRESP=0x0

UVM_INFO @ 2155: uvm_test_top.env_inst.cov_model [COV_MODEL] Sampling read coverage for transaction: ARSIZE=0x0
UVM_INFO @ 2155: uvm_test_top.env_inst.sb [SCOREBOARD] 
READ Address: ARADDR=0x0	 ARID=0x0	 ARLEN=0	 ARSIZE=0	 ARBURST=0

UVM_INFO @ 2155: uvm_test_top.env_inst.sb [SCOREBOARD] 
READ Data: RDATA=0x0	 RRESP=0x0	 RLAST=0x0

UVM_INFO @ 2165: uvm_test_top.env_inst.agent_inst.seqr_inst@@multiple_outstanding_address_inst [SEQ] Running scenario = 27
UVM_INFO @ 2165: uvm_test_top.env_inst.agent_inst.seqr_inst@@multiple_outstanding_address_inst [SEQ] Randomized AWADDR = 0x'{'h6c2323b1, 'h306da3e4, 'hf6a05d11, 'hbebb4f39, 'h88be7a5b, 'h54a9de77, 'h227d7b8d, 'hf239519e, 'hc3dd60a9, 'h9769a8ae, 'h6cde29ad, 'h443ae3a7, 'h1d7fd69b, 'hf8ad0289, 'hd5c26771, 'hb4c00554, 'h95a5dc30, 'h7873ec07}
UVM_INFO @ 2165: uvm_test_top.env_inst.agent_inst.seqr_inst@@multiple_outstanding_address_inst [i] i value = 17
UVM_INFO @ 2165: uvm_test_top.env_inst.agent_inst.seqr_inst@@multiple_outstanding_address_inst [SEQ] rand_wr_addr[0] = 0x6c2323b1
UVM_INFO @ 2165: uvm_test_top.env_inst.agent_inst.seqr_inst@@multiple_outstanding_address_inst [SEQ] rand_wr_addr[1] = 0x306da3e4
UVM_INFO @ 2165: uvm_test_top.env_inst.agent_inst.seqr_inst@@multiple_outstanding_address_inst [SEQ] rand_wr_addr[2] = 0xf6a05d11
UVM_INFO @ 2165: uvm_test_top.env_inst.agent_inst.seqr_inst@@multiple_outstanding_address_inst [SEQ] rand_wr_addr[3] = 0xbebb4f39
UVM_INFO @ 2165: uvm_test_top.env_inst.agent_inst.seqr_inst@@multiple_outstanding_address_inst [SEQ] rand_wr_addr[4] = 0x88be7a5b
UVM_INFO @ 2165: uvm_test_top.env_inst.agent_inst.seqr_inst@@multiple_outstanding_address_inst [SEQ] rand_wr_addr[5] = 0x54a9de77
UVM_INFO @ 2165: uvm_test_top.env_inst.agent_inst.seqr_inst@@multiple_outstanding_address_inst [SEQ] rand_wr_addr[6] = 0x227d7b8d
UVM_INFO @ 2165: uvm_test_top.env_inst.agent_inst.seqr_inst@@multiple_outstanding_address_inst [SEQ] rand_wr_addr[7] = 0xf239519e
UVM_INFO @ 2165: uvm_test_top.env_inst.agent_inst.seqr_inst@@multiple_outstanding_address_inst [SEQ] rand_wr_addr[8] = 0xc3dd60a9
UVM_INFO @ 2165: uvm_test_top.env_inst.agent_inst.seqr_inst@@multiple_outstanding_address_inst [SEQ] rand_wr_addr[9] = 0x9769a8ae
UVM_INFO @ 2165: uvm_test_top.env_inst.agent_inst.seqr_inst@@multiple_outstanding_address_inst [SEQ] rand_wr_addr[10] = 0x6cde29ad
UVM_INFO @ 2165: uvm_test_top.env_inst.agent_inst.seqr_inst@@multiple_outstanding_address_inst [SEQ] rand_wr_addr[11] = 0x443ae3a7
UVM_INFO @ 2165: uvm_test_top.env_inst.agent_inst.seqr_inst@@multiple_outstanding_address_inst [SEQ] rand_wr_addr[12] = 0x1d7fd69b
UVM_INFO @ 2165: uvm_test_top.env_inst.agent_inst.seqr_inst@@multiple_outstanding_address_inst [SEQ] rand_wr_addr[13] = 0xf8ad0289
UVM_INFO @ 2165: uvm_test_top.env_inst.agent_inst.seqr_inst@@multiple_outstanding_address_inst [SEQ] rand_wr_addr[14] = 0xd5c26771
UVM_INFO @ 2165: uvm_test_top.env_inst.agent_inst.seqr_inst@@multiple_outstanding_address_inst [SEQ] rand_wr_addr[15] = 0xb4c00554
UVM_INFO @ 2165: uvm_test_top.env_inst.agent_inst.seqr_inst@@multiple_outstanding_address_inst [SEQ] rand_wr_addr[16] = 0x95a5dc30
UVM_INFO @ 2165: uvm_test_top.env_inst.agent_inst.seqr_inst@@multiple_outstanding_address_inst [SEQ] AWADDR = 0x7873ec07
UVM_INFO @ 2185: uvm_test_top.env_inst.cov_model [COV_MODEL] Sampling write coverage for transaction: WSTRB=0x0, AWSIZE=0x0
UVM_INFO @ 2185: uvm_test_top.env_inst.sb [SCOREBOARD] 
WRITE Address: AWADDR=0x0	 AWID=0x0	 AWLEN=0	 AWSIZE=0	 AWBURST=0

UVM_INFO @ 2185: uvm_test_top.env_inst.sb [SCOREBOARD] 
WRITE Data:	 WDATA=0x'{'h0}	 WSTRB=0x0	 WLAST=0

UVM_INFO @ 2185: uvm_test_top.env_inst.sb [SCOREBOARD] 
WRITE Response:	 BID=0x0	 BRESP=0x0

UVM_INFO @ 2195: uvm_test_top.env_inst.cov_model [COV_MODEL] Sampling read coverage for transaction: ARSIZE=0x0
UVM_INFO @ 2195: uvm_test_top.env_inst.sb [SCOREBOARD] 
READ Address: ARADDR=0x0	 ARID=0x0	 ARLEN=0	 ARSIZE=0	 ARBURST=0

UVM_INFO @ 2195: uvm_test_top.env_inst.sb [SCOREBOARD] 
READ Data: RDATA=0x0	 RRESP=0x0	 RLAST=0x0

UVM_INFO @ 2225: uvm_test_top.env_inst.cov_model [COV_MODEL] Sampling write coverage for transaction: WSTRB=0xc, AWSIZE=0x6
ncsim: *E,EILLVS: (File: ../UVME/env/axi_cov_model.sv, Line: 29):(Time: 2225 NS + 1) Sampled value (13) for coverpoint (worklib.test_pkg::axi_cov_model::axi_write_cg@3068_2.AWID) is an illegal value.
UVM_INFO @ 2225: uvm_test_top.env_inst.sb [SCOREBOARD] 
WRITE Address: AWADDR=0x5d2a34d9	 AWID=0xd	 AWLEN=5	 AWSIZE=6	 AWBURST=1

UVM_INFO @ 2225: uvm_test_top.env_inst.sb [SCOREBOARD] 
WRITE Data:	 WDATA=0x'{'h5e6c5d54}	 WSTRB=0xc	 WLAST=0

UVM_INFO @ 2225: uvm_test_top.env_inst.sb [SCOREBOARD] 
WRITE Response:	 BID=0xd	 BRESP=0x0

UVM_INFO @ 2235: uvm_test_top.env_inst.cov_model [COV_MODEL] Sampling read coverage for transaction: ARSIZE=0x0
UVM_INFO @ 2235: uvm_test_top.env_inst.sb [SCOREBOARD] 
READ Address: ARADDR=0x0	 ARID=0x0	 ARLEN=0	 ARSIZE=0	 ARBURST=0

UVM_INFO @ 2235: uvm_test_top.env_inst.sb [SCOREBOARD] 
READ Data: RDATA=0x0	 RRESP=0x0	 RLAST=0x0

UVM_INFO @ 2265: uvm_test_top.env_inst.cov_model [COV_MODEL] Sampling write coverage for transaction: WSTRB=0xc, AWSIZE=0x0
UVM_INFO @ 2265: uvm_test_top.env_inst.sb [SCOREBOARD] 
WRITE Address: AWADDR=0x0	 AWID=0x0	 AWLEN=0	 AWSIZE=0	 AWBURST=0

UVM_INFO @ 2265: uvm_test_top.env_inst.sb [SCOREBOARD] 
WRITE Data:	 WDATA=0x'{'h6b9e946a}	 WSTRB=0xc	 WLAST=0

UVM_INFO @ 2265: uvm_test_top.env_inst.sb [SCOREBOARD] 
WRITE Response:	 BID=0xd	 BRESP=0x0

UVM_INFO @ 2275: uvm_test_top.env_inst.cov_model [COV_MODEL] Sampling read coverage for transaction: ARSIZE=0x0
UVM_INFO @ 2275: uvm_test_top.env_inst.sb [SCOREBOARD] 
READ Address: ARADDR=0x0	 ARID=0x0	 ARLEN=0	 ARSIZE=0	 ARBURST=0

UVM_INFO @ 2275: uvm_test_top.env_inst.sb [SCOREBOARD] 
READ Data: RDATA=0x0	 RRESP=0x0	 RLAST=0x0

UVM_INFO @ 2285: uvm_test_top.env_inst.agent_inst.seqr_inst@@multiple_outstanding_address_inst [SEQ] Running scenario = 27
UVM_INFO @ 2285: uvm_test_top.env_inst.agent_inst.seqr_inst@@multiple_outstanding_address_inst [SEQ] Randomized AWADDR = 0x'{'h6c2323b1, 'h306da3e4, 'hf6a05d11, 'hbebb4f39, 'h88be7a5b, 'h54a9de77, 'h227d7b8d, 'hf239519e, 'hc3dd60a9, 'h9769a8ae, 'h6cde29ad, 'h443ae3a7, 'h1d7fd69b, 'hf8ad0289, 'hd5c26771, 'hb4c00554, 'h95a5dc30, 'h7873ec07, 'h5d2a34d9}
UVM_INFO @ 2285: uvm_test_top.env_inst.agent_inst.seqr_inst@@multiple_outstanding_address_inst [i] i value = 18
UVM_INFO @ 2285: uvm_test_top.env_inst.agent_inst.seqr_inst@@multiple_outstanding_address_inst [SEQ] rand_wr_addr[0] = 0x6c2323b1
UVM_INFO @ 2285: uvm_test_top.env_inst.agent_inst.seqr_inst@@multiple_outstanding_address_inst [SEQ] rand_wr_addr[1] = 0x306da3e4
UVM_INFO @ 2285: uvm_test_top.env_inst.agent_inst.seqr_inst@@multiple_outstanding_address_inst [SEQ] rand_wr_addr[2] = 0xf6a05d11
UVM_INFO @ 2285: uvm_test_top.env_inst.agent_inst.seqr_inst@@multiple_outstanding_address_inst [SEQ] rand_wr_addr[3] = 0xbebb4f39
UVM_INFO @ 2285: uvm_test_top.env_inst.agent_inst.seqr_inst@@multiple_outstanding_address_inst [SEQ] rand_wr_addr[4] = 0x88be7a5b
UVM_INFO @ 2285: uvm_test_top.env_inst.agent_inst.seqr_inst@@multiple_outstanding_address_inst [SEQ] rand_wr_addr[5] = 0x54a9de77
UVM_INFO @ 2285: uvm_test_top.env_inst.agent_inst.seqr_inst@@multiple_outstanding_address_inst [SEQ] rand_wr_addr[6] = 0x227d7b8d
UVM_INFO @ 2285: uvm_test_top.env_inst.agent_inst.seqr_inst@@multiple_outstanding_address_inst [SEQ] rand_wr_addr[7] = 0xf239519e
UVM_INFO @ 2285: uvm_test_top.env_inst.agent_inst.seqr_inst@@multiple_outstanding_address_inst [SEQ] rand_wr_addr[8] = 0xc3dd60a9
UVM_INFO @ 2285: uvm_test_top.env_inst.agent_inst.seqr_inst@@multiple_outstanding_address_inst [SEQ] rand_wr_addr[9] = 0x9769a8ae
UVM_INFO @ 2285: uvm_test_top.env_inst.agent_inst.seqr_inst@@multiple_outstanding_address_inst [SEQ] rand_wr_addr[10] = 0x6cde29ad
UVM_INFO @ 2285: uvm_test_top.env_inst.agent_inst.seqr_inst@@multiple_outstanding_address_inst [SEQ] rand_wr_addr[11] = 0x443ae3a7
UVM_INFO @ 2285: uvm_test_top.env_inst.agent_inst.seqr_inst@@multiple_outstanding_address_inst [SEQ] rand_wr_addr[12] = 0x1d7fd69b
UVM_INFO @ 2285: uvm_test_top.env_inst.agent_inst.seqr_inst@@multiple_outstanding_address_inst [SEQ] rand_wr_addr[13] = 0xf8ad0289
UVM_INFO @ 2285: uvm_test_top.env_inst.agent_inst.seqr_inst@@multiple_outstanding_address_inst [SEQ] rand_wr_addr[14] = 0xd5c26771
UVM_INFO @ 2285: uvm_test_top.env_inst.agent_inst.seqr_inst@@multiple_outstanding_address_inst [SEQ] rand_wr_addr[15] = 0xb4c00554
UVM_INFO @ 2285: uvm_test_top.env_inst.agent_inst.seqr_inst@@multiple_outstanding_address_inst [SEQ] rand_wr_addr[16] = 0x95a5dc30
UVM_INFO @ 2285: uvm_test_top.env_inst.agent_inst.seqr_inst@@multiple_outstanding_address_inst [SEQ] rand_wr_addr[17] = 0x7873ec07
UVM_INFO @ 2285: uvm_test_top.env_inst.agent_inst.seqr_inst@@multiple_outstanding_address_inst [SEQ] AWADDR = 0x5d2a34d9
UVM_INFO @ 2305: uvm_test_top.env_inst.cov_model [COV_MODEL] Sampling write coverage for transaction: WSTRB=0x0, AWSIZE=0x0
UVM_INFO @ 2305: uvm_test_top.env_inst.sb [SCOREBOARD] 
WRITE Address: AWADDR=0x0	 AWID=0x0	 AWLEN=0	 AWSIZE=0	 AWBURST=0

UVM_INFO @ 2305: uvm_test_top.env_inst.sb [SCOREBOARD] 
WRITE Data:	 WDATA=0x'{'h0}	 WSTRB=0x0	 WLAST=0

UVM_INFO @ 2305: uvm_test_top.env_inst.sb [SCOREBOARD] 
WRITE Response:	 BID=0x0	 BRESP=0x0

UVM_INFO @ 2315: uvm_test_top.env_inst.cov_model [COV_MODEL] Sampling read coverage for transaction: ARSIZE=0x0
UVM_INFO @ 2315: uvm_test_top.env_inst.sb [SCOREBOARD] 
READ Address: ARADDR=0x0	 ARID=0x0	 ARLEN=0	 ARSIZE=0	 ARBURST=0

UVM_INFO @ 2315: uvm_test_top.env_inst.sb [SCOREBOARD] 
READ Data: RDATA=0x0	 RRESP=0x0	 RLAST=0x0

UVM_INFO @ 2345: uvm_test_top.env_inst.cov_model [COV_MODEL] Sampling write coverage for transaction: WSTRB=0x2, AWSIZE=0x7
ncsim: *E,EILLVS: (File: ../UVME/env/axi_cov_model.sv, Line: 54):(Time: 2345 NS + 1) Sampled value (7) for coverpoint (worklib.test_pkg::axi_cov_model::axi_write_cg@3068_2.AWSIZE) is an illegal value.
UVM_INFO @ 2345: uvm_test_top.env_inst.sb [SCOREBOARD] 
WRITE Address: AWADDR=0x43c8b6a4	 AWID=0x0	 AWLEN=5	 AWSIZE=7	 AWBURST=1

UVM_INFO @ 2345: uvm_test_top.env_inst.sb [SCOREBOARD] 
WRITE Data:	 WDATA=0x'{'h64aba897}	 WSTRB=0x2	 WLAST=0

UVM_INFO @ 2345: uvm_test_top.env_inst.sb [SCOREBOARD] 
WRITE Response:	 BID=0x0	 BRESP=0x0

UVM_INFO @ 2355: uvm_test_top.env_inst.cov_model [COV_MODEL] Sampling read coverage for transaction: ARSIZE=0x0
UVM_INFO @ 2355: uvm_test_top.env_inst.sb [SCOREBOARD] 
READ Address: ARADDR=0x0	 ARID=0x0	 ARLEN=0	 ARSIZE=0	 ARBURST=0

UVM_INFO @ 2355: uvm_test_top.env_inst.sb [SCOREBOARD] 
READ Data: RDATA=0x0	 RRESP=0x0	 RLAST=0x0

UVM_INFO @ 2385: uvm_test_top.env_inst.cov_model [COV_MODEL] Sampling write coverage for transaction: WSTRB=0x2, AWSIZE=0x0
UVM_INFO @ 2385: uvm_test_top.env_inst.sb [SCOREBOARD] 
WRITE Address: AWADDR=0x0	 AWID=0x0	 AWLEN=0	 AWSIZE=0	 AWBURST=0

UVM_INFO @ 2385: uvm_test_top.env_inst.sb [SCOREBOARD] 
WRITE Data:	 WDATA=0x'{'hc728d27f}	 WSTRB=0x2	 WLAST=0

UVM_INFO @ 2385: uvm_test_top.env_inst.sb [SCOREBOARD] 
WRITE Response:	 BID=0x0	 BRESP=0x0

UVM_INFO @ 2395: uvm_test_top.env_inst.cov_model [COV_MODEL] Sampling read coverage for transaction: ARSIZE=0x0
UVM_INFO @ 2395: uvm_test_top.env_inst.sb [SCOREBOARD] 
READ Address: ARADDR=0x0	 ARID=0x0	 ARLEN=0	 ARSIZE=0	 ARBURST=0

UVM_INFO @ 2395: uvm_test_top.env_inst.sb [SCOREBOARD] 
READ Data: RDATA=0x0	 RRESP=0x0	 RLAST=0x0

UVM_INFO @ 2405: uvm_test_top.env_inst.agent_inst.seqr_inst@@multiple_outstanding_address_inst [SEQ] Running scenario = 27
UVM_INFO @ 2405: uvm_test_top.env_inst.agent_inst.seqr_inst@@multiple_outstanding_address_inst [SEQ] Randomized AWADDR = 0x'{'h6c2323b1, 'h306da3e4, 'hf6a05d11, 'hbebb4f39, 'h88be7a5b, 'h54a9de77, 'h227d7b8d, 'hf239519e, 'hc3dd60a9, 'h9769a8ae, 'h6cde29ad, 'h443ae3a7, 'h1d7fd69b, 'hf8ad0289, 'hd5c26771, 'hb4c00554, 'h95a5dc30, 'h7873ec07, 'h5d2a34d9, 'h43c8b6a4}
UVM_INFO @ 2405: uvm_test_top.env_inst.agent_inst.seqr_inst@@multiple_outstanding_address_inst [i] i value = 19
UVM_INFO @ 2405: uvm_test_top.env_inst.agent_inst.seqr_inst@@multiple_outstanding_address_inst [SEQ] rand_wr_addr[0] = 0x6c2323b1
UVM_INFO @ 2405: uvm_test_top.env_inst.agent_inst.seqr_inst@@multiple_outstanding_address_inst [SEQ] rand_wr_addr[1] = 0x306da3e4
UVM_INFO @ 2405: uvm_test_top.env_inst.agent_inst.seqr_inst@@multiple_outstanding_address_inst [SEQ] rand_wr_addr[2] = 0xf6a05d11
UVM_INFO @ 2405: uvm_test_top.env_inst.agent_inst.seqr_inst@@multiple_outstanding_address_inst [SEQ] rand_wr_addr[3] = 0xbebb4f39
UVM_INFO @ 2405: uvm_test_top.env_inst.agent_inst.seqr_inst@@multiple_outstanding_address_inst [SEQ] rand_wr_addr[4] = 0x88be7a5b
UVM_INFO @ 2405: uvm_test_top.env_inst.agent_inst.seqr_inst@@multiple_outstanding_address_inst [SEQ] rand_wr_addr[5] = 0x54a9de77
UVM_INFO @ 2405: uvm_test_top.env_inst.agent_inst.seqr_inst@@multiple_outstanding_address_inst [SEQ] rand_wr_addr[6] = 0x227d7b8d
UVM_INFO @ 2405: uvm_test_top.env_inst.agent_inst.seqr_inst@@multiple_outstanding_address_inst [SEQ] rand_wr_addr[7] = 0xf239519e
UVM_INFO @ 2405: uvm_test_top.env_inst.agent_inst.seqr_inst@@multiple_outstanding_address_inst [SEQ] rand_wr_addr[8] = 0xc3dd60a9
UVM_INFO @ 2405: uvm_test_top.env_inst.agent_inst.seqr_inst@@multiple_outstanding_address_inst [SEQ] rand_wr_addr[9] = 0x9769a8ae
UVM_INFO @ 2405: uvm_test_top.env_inst.agent_inst.seqr_inst@@multiple_outstanding_address_inst [SEQ] rand_wr_addr[10] = 0x6cde29ad
UVM_INFO @ 2405: uvm_test_top.env_inst.agent_inst.seqr_inst@@multiple_outstanding_address_inst [SEQ] rand_wr_addr[11] = 0x443ae3a7
UVM_INFO @ 2405: uvm_test_top.env_inst.agent_inst.seqr_inst@@multiple_outstanding_address_inst [SEQ] rand_wr_addr[12] = 0x1d7fd69b
UVM_INFO @ 2405: uvm_test_top.env_inst.agent_inst.seqr_inst@@multiple_outstanding_address_inst [SEQ] rand_wr_addr[13] = 0xf8ad0289
UVM_INFO @ 2405: uvm_test_top.env_inst.agent_inst.seqr_inst@@multiple_outstanding_address_inst [SEQ] rand_wr_addr[14] = 0xd5c26771
UVM_INFO @ 2405: uvm_test_top.env_inst.agent_inst.seqr_inst@@multiple_outstanding_address_inst [SEQ] rand_wr_addr[15] = 0xb4c00554
UVM_INFO @ 2405: uvm_test_top.env_inst.agent_inst.seqr_inst@@multiple_outstanding_address_inst [SEQ] rand_wr_addr[16] = 0x95a5dc30
UVM_INFO @ 2405: uvm_test_top.env_inst.agent_inst.seqr_inst@@multiple_outstanding_address_inst [SEQ] rand_wr_addr[17] = 0x7873ec07
UVM_INFO @ 2405: uvm_test_top.env_inst.agent_inst.seqr_inst@@multiple_outstanding_address_inst [SEQ] rand_wr_addr[18] = 0x5d2a34d9
UVM_INFO @ 2405: uvm_test_top.env_inst.agent_inst.seqr_inst@@multiple_outstanding_address_inst [SEQ] AWADDR = 0x43c8b6a4
UVM_INFO @ 2425: uvm_test_top.env_inst.cov_model [COV_MODEL] Sampling write coverage for transaction: WSTRB=0x0, AWSIZE=0x0
UVM_INFO @ 2425: uvm_test_top.env_inst.sb [SCOREBOARD] 
WRITE Address: AWADDR=0x0	 AWID=0x0	 AWLEN=0	 AWSIZE=0	 AWBURST=0

UVM_INFO @ 2425: uvm_test_top.env_inst.sb [SCOREBOARD] 
WRITE Data:	 WDATA=0x'{'h0}	 WSTRB=0x0	 WLAST=0

UVM_INFO @ 2425: uvm_test_top.env_inst.sb [SCOREBOARD] 
WRITE Response:	 BID=0x0	 BRESP=0x0

UVM_INFO @ 2435: uvm_test_top.env_inst.cov_model [COV_MODEL] Sampling read coverage for transaction: ARSIZE=0x0
UVM_INFO @ 2435: uvm_test_top.env_inst.sb [SCOREBOARD] 
READ Address: ARADDR=0x0	 ARID=0x0	 ARLEN=0	 ARSIZE=0	 ARBURST=0

UVM_INFO @ 2435: uvm_test_top.env_inst.sb [SCOREBOARD] 
READ Data: RDATA=0x0	 RRESP=0x0	 RLAST=0x0

UVM_INFO @ 2465: uvm_test_top.env_inst.cov_model [COV_MODEL] Sampling write coverage for transaction: WSTRB=0xc, AWSIZE=0x5
ncsim: *E,EILLVS: (File: ../UVME/env/axi_cov_model.sv, Line: 29):(Time: 2465 NS + 1) Sampled value (6) for coverpoint (worklib.test_pkg::axi_cov_model::axi_write_cg@3068_2.AWID) is an illegal value.
UVM_INFO @ 2465: uvm_test_top.env_inst.sb [SCOREBOARD] 
WRITE Address: AWADDR=0x2c4f716a	 AWID=0x6	 AWLEN=5	 AWSIZE=5	 AWBURST=1

UVM_INFO @ 2465: uvm_test_top.env_inst.sb [SCOREBOARD] 
WRITE Data:	 WDATA=0x'{'hc695661}	 WSTRB=0xc	 WLAST=0

UVM_INFO @ 2465: uvm_test_top.env_inst.sb [SCOREBOARD] 
WRITE Response:	 BID=0x6	 BRESP=0x0

UVM_INFO @ 2475: uvm_test_top.env_inst.cov_model [COV_MODEL] Sampling read coverage for transaction: ARSIZE=0x0
UVM_INFO @ 2475: uvm_test_top.env_inst.sb [SCOREBOARD] 
READ Address: ARADDR=0x0	 ARID=0x0	 ARLEN=0	 ARSIZE=0	 ARBURST=0

UVM_INFO @ 2475: uvm_test_top.env_inst.sb [SCOREBOARD] 
READ Data: RDATA=0x0	 RRESP=0x0	 RLAST=0x0

UVM_INFO @ 2505: uvm_test_top.env_inst.cov_model [COV_MODEL] Sampling write coverage for transaction: WSTRB=0xc, AWSIZE=0x0
UVM_INFO @ 2505: uvm_test_top.env_inst.sb [SCOREBOARD] 
WRITE Address: AWADDR=0x0	 AWID=0x0	 AWLEN=0	 AWSIZE=0	 AWBURST=0

UVM_INFO @ 2505: uvm_test_top.env_inst.sb [SCOREBOARD] 
WRITE Data:	 WDATA=0x'{'hc867b7fe}	 WSTRB=0xc	 WLAST=0

UVM_INFO @ 2505: uvm_test_top.env_inst.sb [SCOREBOARD] 
WRITE Response:	 BID=0x6	 BRESP=0x0

UVM_INFO @ 2515: uvm_test_top.env_inst.cov_model [COV_MODEL] Sampling read coverage for transaction: ARSIZE=0x0
UVM_INFO @ 2515: uvm_test_top.env_inst.sb [SCOREBOARD] 
READ Address: ARADDR=0x0	 ARID=0x0	 ARLEN=0	 ARSIZE=0	 ARBURST=0

UVM_INFO @ 2515: uvm_test_top.env_inst.sb [SCOREBOARD] 
READ Data: RDATA=0x0	 RRESP=0x0	 RLAST=0x0

UVM_INFO @ 2525: uvm_test_top.env_inst.agent_inst.seqr_inst@@multiple_outstanding_address_inst [SEQ] Running scenario = 27
UVM_INFO @ 2525: uvm_test_top.env_inst.agent_inst.seqr_inst@@multiple_outstanding_address_inst [SEQ] Randomized AWADDR = 0x'{'h6c2323b1, 'h306da3e4, 'hf6a05d11, 'hbebb4f39, 'h88be7a5b, 'h54a9de77, 'h227d7b8d, 'hf239519e, 'hc3dd60a9, 'h9769a8ae, 'h6cde29ad, 'h443ae3a7, 'h1d7fd69b, 'hf8ad0289, 'hd5c26771, 'hb4c00554, 'h95a5dc30, 'h7873ec07, 'h5d2a34d9, 'h43c8b6a4, 'h2c4f716a}
UVM_INFO @ 2525: uvm_test_top.env_inst.agent_inst.seqr_inst@@multiple_outstanding_address_inst [i] i value = 20
UVM_INFO @ 2525: uvm_test_top.env_inst.agent_inst.seqr_inst@@multiple_outstanding_address_inst [SEQ] rand_wr_addr[0] = 0x6c2323b1
UVM_INFO @ 2525: uvm_test_top.env_inst.agent_inst.seqr_inst@@multiple_outstanding_address_inst [SEQ] rand_wr_addr[1] = 0x306da3e4
UVM_INFO @ 2525: uvm_test_top.env_inst.agent_inst.seqr_inst@@multiple_outstanding_address_inst [SEQ] rand_wr_addr[2] = 0xf6a05d11
UVM_INFO @ 2525: uvm_test_top.env_inst.agent_inst.seqr_inst@@multiple_outstanding_address_inst [SEQ] rand_wr_addr[3] = 0xbebb4f39
UVM_INFO @ 2525: uvm_test_top.env_inst.agent_inst.seqr_inst@@multiple_outstanding_address_inst [SEQ] rand_wr_addr[4] = 0x88be7a5b
UVM_INFO @ 2525: uvm_test_top.env_inst.agent_inst.seqr_inst@@multiple_outstanding_address_inst [SEQ] rand_wr_addr[5] = 0x54a9de77
UVM_INFO @ 2525: uvm_test_top.env_inst.agent_inst.seqr_inst@@multiple_outstanding_address_inst [SEQ] rand_wr_addr[6] = 0x227d7b8d
UVM_INFO @ 2525: uvm_test_top.env_inst.agent_inst.seqr_inst@@multiple_outstanding_address_inst [SEQ] rand_wr_addr[7] = 0xf239519e
UVM_INFO @ 2525: uvm_test_top.env_inst.agent_inst.seqr_inst@@multiple_outstanding_address_inst [SEQ] rand_wr_addr[8] = 0xc3dd60a9
UVM_INFO @ 2525: uvm_test_top.env_inst.agent_inst.seqr_inst@@multiple_outstanding_address_inst [SEQ] rand_wr_addr[9] = 0x9769a8ae
UVM_INFO @ 2525: uvm_test_top.env_inst.agent_inst.seqr_inst@@multiple_outstanding_address_inst [SEQ] rand_wr_addr[10] = 0x6cde29ad
UVM_INFO @ 2525: uvm_test_top.env_inst.agent_inst.seqr_inst@@multiple_outstanding_address_inst [SEQ] rand_wr_addr[11] = 0x443ae3a7
UVM_INFO @ 2525: uvm_test_top.env_inst.agent_inst.seqr_inst@@multiple_outstanding_address_inst [SEQ] rand_wr_addr[12] = 0x1d7fd69b
UVM_INFO @ 2525: uvm_test_top.env_inst.agent_inst.seqr_inst@@multiple_outstanding_address_inst [SEQ] rand_wr_addr[13] = 0xf8ad0289
UVM_INFO @ 2525: uvm_test_top.env_inst.agent_inst.seqr_inst@@multiple_outstanding_address_inst [SEQ] rand_wr_addr[14] = 0xd5c26771
UVM_INFO @ 2525: uvm_test_top.env_inst.agent_inst.seqr_inst@@multiple_outstanding_address_inst [SEQ] rand_wr_addr[15] = 0xb4c00554
UVM_INFO @ 2525: uvm_test_top.env_inst.agent_inst.seqr_inst@@multiple_outstanding_address_inst [SEQ] rand_wr_addr[16] = 0x95a5dc30
UVM_INFO @ 2525: uvm_test_top.env_inst.agent_inst.seqr_inst@@multiple_outstanding_address_inst [SEQ] rand_wr_addr[17] = 0x7873ec07
UVM_INFO @ 2525: uvm_test_top.env_inst.agent_inst.seqr_inst@@multiple_outstanding_address_inst [SEQ] rand_wr_addr[18] = 0x5d2a34d9
UVM_INFO @ 2525: uvm_test_top.env_inst.agent_inst.seqr_inst@@multiple_outstanding_address_inst [SEQ] rand_wr_addr[19] = 0x43c8b6a4
UVM_INFO @ 2525: uvm_test_top.env_inst.agent_inst.seqr_inst@@multiple_outstanding_address_inst [SEQ] AWADDR = 0x2c4f716a
UVM_INFO @ 2545: uvm_test_top.env_inst.cov_model [COV_MODEL] Sampling write coverage for transaction: WSTRB=0x0, AWSIZE=0x0
